Time [s],Value,Parity Error,Framing Error
0.001892,0x04,,
0.001988,0xA1,,
0.002083,0x5A,,
0.002179,0xFF,,
0.002896,0x06,,
0.002991,0xA1,,
0.003086,0x00,,
0.00318,0x00,,
0.003275,0x58,,
0.00337,0xFF,,
0.009593,0x04,,
0.009689,0xA2,,
0.009784,0x59,,
0.00988,0xFF,,
0.017294,0x04,,
0.01739,0xA2,,
0.017485,0x59,,
0.017581,0xFF,,
0.018303,0x06,,
0.018399,0xA2,,
0.018494,0xFF,,
0.01859,0xFF,,
0.018685,0x59,,
0.018781,0xFD,,
0.024995,0x04,,
0.02509,0xA1,,
0.025186,0x5A,,
0.025282,0xFF,,
0.026001,0x06,,
0.026096,0xA1,,
0.026191,0x00,,
0.026286,0x00,,
0.026381,0x58,,
0.026475,0xFF,,
0.032696,0x04,,
0.032791,0xA2,,
0.032887,0x59,,
0.032982,0xFF,,
0.033702,0x06,,
0.033798,0xA2,,
0.033893,0xFF,,
0.033989,0xFF,,
0.034084,0x59,,
0.03418,0xFD,,
0.040397,0x04,,
0.040492,0xA1,,
0.040588,0x5A,,
0.040683,0xFF,,
0.041399,0x06,,
0.041493,0xA1,,
0.041588,0x00,,
0.041683,0x00,,
0.041778,0x58,,
0.041873,0xFF,,
0.048097,0x04,,
0.048193,0xA2,,
0.048289,0x59,,
0.048384,0xFF,,
0.049107,0x06,,
0.049203,0xA2,,
0.049298,0xFF,,
0.049394,0xFF,,
0.049489,0x59,,
0.049585,0xFD,,
0.055798,0x04,,
0.055894,0xA1,,
0.055989,0x5A,,
0.056085,0xFF,,
0.056796,0x06,,
0.056891,0xA1,,
0.056986,0x00,,
0.057081,0x00,,
0.057176,0x58,,
0.05727,0xFF,,
0.063499,0x04,,
0.063595,0xA2,,
0.06369,0x59,,
0.063786,0xFF,,
0.064507,0x06,,
0.064603,0xA2,,
0.064698,0xFF,,
0.064794,0xFF,,
0.064889,0x59,,
0.064985,0xFD,,
0.0712,0x04,,
0.071296,0xA1,,
0.071391,0x5A,,
0.071487,0xFF,,
0.072202,0x06,,
0.072297,0xA1,,
0.072392,0x00,,
0.072487,0x00,,
0.072582,0x58,,
0.072677,0xFF,,
0.078901,0x04,,
0.078996,0xA2,,
0.079092,0x59,,
0.079188,0xFF,,
0.079912,0x06,,
0.080008,0xA2,,
0.080103,0xFF,,
0.080199,0xFF,,
0.080294,0x59,,
0.08039,0xFD,,
0.086602,0x04,,
0.086697,0xA1,,
0.086793,0x5A,,
0.086888,0xFF,,
0.0876,0x06,,
0.087695,0xA1,,
0.08779,0x00,,
0.087885,0x00,,
0.087979,0x58,,
0.088074,0xFF,,
0.094303,0x04,,
0.094398,0xA2,,
0.094494,0x59,,
0.094589,0xFF,,
0.09531,0x06,,
0.095405,0xA2,,
0.095501,0xFF,,
0.095596,0xFF,,
0.095692,0x59,,
0.095787,0xFD,,
0.102003,0x04,,
0.102099,0xA1,,
0.102195,0x5A,,
0.10229,0xFF,,
0.103005,0x06,,
0.1031,0xA1,,
0.103195,0x00,,
0.10329,0x00,,
0.103385,0x58,,
0.103479,0xFF,,
0.109704,0x04,,
0.1098,0xA2,,
0.109895,0x59,,
0.109991,0xFF,,
0.110709,0x06,,
0.110804,0xA2,,
0.1109,0xFF,,
0.110995,0xFF,,
0.111091,0x59,,
0.111186,0xFD,,
0.117404,0x04,,
0.1175,0xA1,,
0.117595,0x5A,,
0.117691,0xFF,,
0.118403,0x06,,
0.118498,0xA1,,
0.118593,0x00,,
0.118687,0x00,,
0.118782,0x58,,
0.118877,0xFF,,
0.125105,0x04,,
0.125201,0xA2,,
0.125296,0x59,,
0.125392,0xFF,,
0.126114,0x06,,
0.126209,0xA2,,
0.126305,0xFF,,
0.1264,0xFF,,
0.126496,0x59,,
0.126592,0xFD,,
0.132806,0x04,,
0.132901,0xA1,,
0.132997,0x5A,,
0.133093,0xFF,,
0.133808,0x06,,
0.133903,0xA1,,
0.133998,0x00,,
0.134093,0x00,,
0.134187,0x58,,
0.134282,0xFF,,
0.140507,0x04,,
0.140602,0xA2,,
0.140698,0x59,,
0.140793,0xFF,,
0.141514,0x06,,
0.141609,0xA2,,
0.141705,0xFF,,
0.141801,0xFF,,
0.141896,0x59,,
0.141992,0xFD,,
0.148208,0x04,,
0.148303,0xA1,,
0.148399,0x5A,,
0.148494,0xFF,,
0.149208,0x06,,
0.149303,0xA1,,
0.149398,0x00,,
0.149493,0x00,,
0.149588,0x58,,
0.149682,0xFF,,
0.155908,0x04,,
0.156004,0xA2,,
0.1561,0x59,,
0.156195,0xFF,,
0.156913,0x06,,
0.157009,0xA2,,
0.157104,0xFF,,
0.1572,0xFF,,
0.157295,0x59,,
0.157391,0xFD,,
0.163609,0x04,,
0.163705,0xA1,,
0.1638,0x5A,,
0.163896,0xFF,,
0.164612,0x06,,
0.164707,0xA1,,
0.164801,0x00,,
0.164896,0x00,,
0.164991,0x58,,
0.165086,0xFF,,
0.17131,0x04,,
0.171406,0xA2,,
0.171501,0x59,,
0.171597,0xFF,,
0.172318,0x06,,
0.172414,0xA2,,
0.172509,0xFF,,
0.172605,0xFF,,
0.1727,0x59,,
0.172796,0xFD,,
0.179011,0x04,,
0.179107,0xA1,,
0.179202,0x5A,,
0.179298,0xFF,,
0.180011,0x06,,
0.180106,0xA1,,
0.1802,0x00,,
0.180295,0x00,,
0.18039,0x58,,
0.180485,0xFF,,
0.186712,0x04,,
0.186807,0xA2,,
0.186903,0x59,,
0.186999,0xFF,,
0.187723,0x06,,
0.187819,0xA2,,
0.187914,0xFF,,
0.18801,0xFF,,
0.188105,0x59,,
0.188201,0xFD,,
0.194413,0x04,,
0.194508,0xA1,,
0.194604,0x5A,,
0.194699,0xFF,,
0.195414,0x06,,
0.195509,0xA1,,
0.195604,0x00,,
0.195699,0x00,,
0.195794,0x58,,
0.195888,0xFF,,
0.202114,0x04,,
0.202209,0xA2,,
0.202305,0x59,,
0.2024,0xFF,,
0.203123,0x06,,
0.203219,0xA2,,
0.203314,0xFF,,
0.20341,0xFF,,
0.203505,0x59,,
0.203601,0xFD,,
0.209814,0x04,,
0.20991,0xA1,,
0.210006,0x5A,,
0.210101,0xFF,,
0.210816,0x06,,
0.210911,0xA1,,
0.211005,0x00,,
0.2111,0x00,,
0.211195,0x58,,
0.21129,0xFF,,
0.217515,0x04,,
0.217611,0xA2,,
0.217706,0x59,,
0.217802,0xFF,,
0.218522,0x06,,
0.218618,0xA2,,
0.218713,0xFF,,
0.218809,0xFF,,
0.218904,0x59,,
0.219,0xFD,,
0.225215,0x04,,
0.225311,0xA1,,
0.225406,0x5A,,
0.225502,0xFF,,
0.226213,0x06,,
0.226308,0xA1,,
0.226403,0x00,,
0.226498,0x00,,
0.226593,0x58,,
0.226688,0xFF,,
0.232916,0x04,,
0.233012,0xA2,,
0.233107,0x59,,
0.233203,0xFF,,
0.233921,0x06,,
0.234017,0xA2,,
0.234112,0xFF,,
0.234208,0xFF,,
0.234303,0x59,,
0.234399,0xFD,,
0.240617,0x04,,
0.240712,0xA1,,
0.240808,0x5A,,
0.240904,0xFF,,
0.241618,0x06,,
0.241713,0xA1,,
0.241808,0x00,,
0.241903,0x00,,
0.241998,0x58,,
0.242092,0xFF,,
0.248318,0x04,,
0.248413,0xA2,,
0.248509,0x59,,
0.248604,0xFF,,
0.249326,0x06,,
0.249422,0xA2,,
0.249517,0xFF,,
0.249613,0xFF,,
0.249708,0x59,,
0.249804,0xFD,,
0.256018,0x04,,
0.256114,0xA1,,
0.25621,0x5A,,
0.256305,0xFF,,
0.257025,0x06,,
0.25712,0xA1,,
0.257215,0x00,,
0.257309,0x00,,
0.257404,0x58,,
0.257499,0xFF,,
0.263719,0x04,,
0.263815,0xA2,,
0.26391,0x59,,
0.264006,0xFF,,
0.264725,0x06,,
0.26482,0xA2,,
0.264916,0xFF,,
0.265011,0xFF,,
0.265107,0x59,,
0.265202,0xFD,,
0.27142,0x04,,
0.271516,0xA1,,
0.271611,0x5A,,
0.271707,0xFF,,
0.272426,0x06,,
0.272521,0xA1,,
0.272616,0x00,,
0.272711,0x00,,
0.272806,0x58,,
0.272901,0xFF,,
0.279121,0x04,,
0.279217,0xA2,,
0.279312,0x59,,
0.279408,0xFF,,
0.28013,0x06,,
0.280225,0xA2,,
0.280321,0xFF,,
0.280416,0xFF,,
0.280512,0x59,,
0.280607,0xFD,,
0.286821,0x04,,
0.286916,0xA1,,
0.287012,0x5A,,
0.287108,0xFF,,
0.287827,0x06,,
0.287922,0xA1,,
0.288017,0x00,,
0.288112,0x00,,
0.288207,0x58,,
0.288301,0xFF,,
0.294522,0x04,,
0.294617,0xA2,,
0.294713,0x59,,
0.294808,0xFF,,
0.295529,0x06,,
0.295624,0xA2,,
0.29572,0xFF,,
0.295815,0xFF,,
0.295911,0x59,,
0.296006,0xFD,,
0.302224,0x04,,
0.302319,0xA1,,
0.302415,0x5A,,
0.30251,0xFF,,
0.303225,0x06,,
0.30332,0xA1,,
0.303415,0x00,,
0.30351,0x00,,
0.303604,0x58,,
0.303699,0xFF,,
0.309923,0x04,,
0.310019,0xA2,,
0.310115,0x59,,
0.31021,0xFF,,
0.310934,0x06,,
0.311029,0xA2,,
0.311125,0xFF,,
0.31122,0xFF,,
0.311316,0x59,,
0.311411,0xFD,,
0.317624,0x04,,
0.31772,0xA1,,
0.317815,0x5A,,
0.317911,0xFF,,
0.318626,0x06,,
0.318721,0xA1,,
0.318815,0x00,,
0.31891,0x00,,
0.319005,0x58,,
0.3191,0xFF,,
0.325325,0x04,,
0.325421,0xA2,,
0.325516,0x59,,
0.325612,0xFF,,
0.326332,0x06,,
0.326428,0xA2,,
0.326523,0xFF,,
0.326619,0xFF,,
0.326714,0x59,,
0.32681,0xFD,,
0.333026,0x04,,
0.333122,0xA1,,
0.333217,0x5A,,
0.333313,0xFF,,
0.334024,0x06,,
0.334119,0xA1,,
0.334214,0x00,,
0.334309,0x00,,
0.334404,0x58,,
0.334499,0xFF,,
0.340727,0x04,,
0.340822,0xA2,,
0.340918,0x59,,
0.341014,0xFF,,
0.341731,0x06,,
0.341827,0xA2,,
0.341922,0xFF,,
0.342018,0xFF,,
0.342113,0x59,,
0.342209,0xFD,,
0.348428,0x04,,
0.348523,0xA1,,
0.348619,0x5A,,
0.348714,0xFF,,
0.34943,0x06,,
0.349524,0xA1,,
0.349619,0x00,,
0.349714,0x00,,
0.349809,0x58,,
0.349904,0xFF,,
0.356129,0x04,,
0.356224,0xA2,,
0.35632,0x59,,
0.356415,0xFF,,
0.357136,0x06,,
0.357232,0xA2,,
0.357327,0xFF,,
0.357423,0xFF,,
0.357518,0x59,,
0.357614,0xFD,,
0.363829,0x04,,
0.363925,0x83,,
0.364021,0x78,,
0.364116,0xFF,,
0.37153,0x04,,
0.371626,0xA1,,
0.371721,0x5A,,
0.371817,0xFF,,
0.372531,0x06,,
0.372626,0xA1,,
0.372721,0x00,,
0.372815,0x00,,
0.37291,0x58,,
0.373005,0xFF,,
0.379231,0x04,,
0.379327,0xA2,,
0.379422,0x59,,
0.379518,0xFF,,
0.380239,0x06,,
0.380335,0xA2,,
0.38043,0xFF,,
0.380526,0xFF,,
0.380621,0x59,,
0.380717,0xFD,,
0.386932,0x04,,
0.387028,0xA1,,
0.387123,0x5A,,
0.387219,0xFF,,
0.38793,0x06,,
0.388025,0xA1,,
0.38812,0x00,,
0.388214,0x00,,
0.388309,0x58,,
0.388404,0xFF,,
0.394633,0x04,,
0.394728,0xA2,,
0.394824,0x59,,
0.39492,0xFF,,
0.395639,0x06,,
0.395735,0xA2,,
0.39583,0xFF,,
0.395926,0xFF,,
0.396021,0x59,,
0.396117,0xFD,,
0.402334,0x04,,
0.402429,0xA1,,
0.402525,0x5A,,
0.40262,0xFF,,
0.403336,0x06,,
0.403431,0xA1,,
0.403526,0x00,,
0.403621,0x00,,
0.403715,0x58,,
0.40381,0xFF,,
0.410035,0x04,,
0.41013,0xA2,,
0.410226,0x59,,
0.410321,0xFF,,
0.411044,0x06,,
0.41114,0xA2,,
0.411235,0xFF,,
0.411331,0xFF,,
0.411426,0x59,,
0.411522,0xFD,,
0.417735,0x04,,
0.417831,0xA1,,
0.417927,0x5A,,
0.418022,0xFF,,
0.418734,0x06,,
0.418829,0xA1,,
0.418923,0x00,,
0.419018,0x00,,
0.419113,0x58,,
0.419208,0xFF,,
0.425436,0x04,,
0.425532,0xA2,,
0.425627,0x59,,
0.425723,0xFF,,
0.426443,0x06,,
0.426539,0xA2,,
0.426634,0xFF,,
0.42673,0xFF,,
0.426825,0x59,,
0.426921,0xFD,,
0.433137,0x04,,
0.433233,0xA1,,
0.433328,0x5A,,
0.433424,0xFF,,
0.434139,0x06,,
0.434234,0xA1,,
0.434329,0x00,,
0.434424,0x00,,
0.434518,0x58,,
0.434613,0xFF,,
0.440838,0x04,,
0.440934,0xA2,,
0.441029,0x59,,
0.441125,0xFF,,
0.441848,0x06,,
0.441944,0xA2,,
0.442039,0xFF,,
0.442135,0xFF,,
0.44223,0x59,,
0.442326,0xFD,,
0.448539,0x04,,
0.448634,0xA1,,
0.44873,0x5A,,
0.448826,0xFF,,
0.449537,0x06,,
0.449632,0xA1,,
0.449726,0x00,,
0.449821,0x00,,
0.449916,0x58,,
0.450011,0xFF,,
0.45624,0x04,,
0.456335,0xA2,,
0.456431,0x59,,
0.456526,0xFF,,
0.463941,0x04,,
0.464036,0xA2,,
0.464132,0x59,,
0.464227,0xFF,,
0.464948,0x06,,
0.465043,0xA2,,
0.465139,0xFF,,
0.465234,0xFF,,
0.46533,0x59,,
0.465425,0xFD,,
0.471641,0x04,,
0.471737,0xA1,,
0.471833,0x5A,,
0.471928,0xFF,,
0.472645,0x06,,
0.47274,0xA1,,
0.472835,0x00,,
0.47293,0x00,,
0.473025,0x58,,
0.47312,0xFF,,
0.479342,0x04,,
0.479438,0xA2,,
0.479533,0x59,,
0.479629,0xFF,,
0.480347,0x06,,
0.480442,0xA2,,
0.480538,0xFF,,
0.480633,0xFF,,
0.480729,0x59,,
0.480825,0xFD,,
0.487043,0x04,,
0.487139,0xA1,,
0.487234,0x5A,,
0.48733,0xFF,,
0.488043,0x06,,
0.488138,0xA1,,
0.488233,0x00,,
0.488328,0x00,,
0.488423,0x58,,
0.488518,0xFF,,
0.494744,0x04,,
0.49484,0xA2,,
0.494935,0x59,,
0.495031,0xFF,,
0.495752,0x06,,
0.495847,0xA2,,
0.495943,0xFF,,
0.496039,0xFF,,
0.496134,0x59,,
0.49623,0xFD,,
0.502445,0x04,,
0.50254,0xA1,,
0.502636,0x5A,,
0.502732,0xFF,,
0.503449,0x06,,
0.503544,0xA1,,
0.503639,0x00,,
0.503734,0x00,,
0.503828,0x58,,
0.503923,0xFF,,
0.510146,0x04,,
0.510241,0xA2,,
0.510337,0x59,,
0.510432,0xFF,,
0.511154,0x06,,
0.511249,0xA2,,
0.511345,0xFF,,
0.51144,0xFF,,
0.511536,0x59,,
0.511631,0xFD,,
0.517846,0x04,,
0.517941,0xA1,,
0.518037,0x5A,,
0.518132,0xFF,,
0.518854,0x06,,
0.518949,0xA1,,
0.519044,0x00,,
0.519138,0x00,,
0.519233,0x58,,
0.519328,0xFF,,
0.525546,0x04,,
0.525642,0xA2,,
0.525738,0x59,,
0.525833,0xFF,,
0.526551,0x06,,
0.526647,0xA2,,
0.526742,0xFF,,
0.526838,0xFF,,
0.526933,0x59,,
0.527029,0xFD,,
0.533246,0x04,,
0.533342,0xA1,,
0.533437,0x5A,,
0.533533,0xFF,,
0.534246,0x06,,
0.534341,0xA1,,
0.534435,0x00,,
0.53453,0x00,,
0.534625,0x58,,
0.53472,0xFF,,
0.540947,0x04,,
0.541043,0xA2,,
0.541138,0x59,,
0.541234,0xFF,,
0.541956,0x06,,
0.542052,0xA2,,
0.542147,0xFF,,
0.542243,0xFF,,
0.542338,0x59,,
0.542434,0xFD,,
0.548648,0x04,,
0.548744,0xA1,,
0.548839,0x5A,,
0.548935,0xFF,,
0.549651,0x06,,
0.549746,0xA1,,
0.549841,0x00,,
0.549936,0x00,,
0.55003,0x58,,
0.550125,0xFF,,
0.556349,0x04,,
0.556444,0xA2,,
0.55654,0x59,,
0.556636,0xFF,,
0.557355,0x06,,
0.557451,0xA2,,
0.557546,0xFF,,
0.557642,0xFF,,
0.557737,0x59,,
0.557833,0xFD,,
0.56405,0x04,,
0.564145,0xA1,,
0.564241,0x5A,,
0.564336,0xFF,,
0.565049,0x06,,
0.565144,0xA1,,
0.565239,0x00,,
0.565334,0x00,,
0.565428,0x58,,
0.565523,0xFF,,
0.571751,0x04,,
0.571846,0xA2,,
0.571942,0x59,,
0.572037,0xFF,,
0.572763,0x06,,
0.572858,0xA2,,
0.572954,0xFF,,
0.573049,0xFF,,
0.573145,0x59,,
0.57324,0xFD,,
0.579451,0x04,,
0.579547,0xA1,,
0.579643,0x5A,,
0.579738,0xFF,,
0.580456,0x06,,
0.580551,0xA1,,
0.580645,0x00,,
0.58074,0x00,,
0.580835,0x58,,
0.58093,0xFF,,
0.587152,0x04,,
0.587248,0xA2,,
0.587343,0x59,,
0.587439,0xFF,,
0.588162,0x06,,
0.588257,0xA2,,
0.588353,0xFF,,
0.588448,0xFF,,
0.588544,0x59,,
0.588639,0xFD,,
0.594853,0x04,,
0.594949,0xA1,,
0.595044,0x5A,,
0.59514,0xFF,,
0.595854,0x06,,
0.595949,0xA1,,
0.596043,0x00,,
0.596138,0x00,,
0.596233,0x58,,
0.596328,0xFF,,
0.602554,0x04,,
0.60265,0xA2,,
0.602745,0x59,,
0.602841,0xFF,,
0.603559,0x06,,
0.603655,0xA2,,
0.60375,0xFF,,
0.603846,0xFF,,
0.603941,0x59,,
0.604037,0xFD,,
0.610255,0x04,,
0.61035,0xA1,,
0.610446,0x5A,,
0.610542,0xFF,,
0.611259,0x06,,
0.611354,0xA1,,
0.611449,0x00,,
0.611544,0x00,,
0.611639,0x58,,
0.611733,0xFF,,
0.617956,0x04,,
0.618051,0xA2,,
0.618147,0x59,,
0.618242,0xFF,,
0.618964,0x06,,
0.61906,0xA2,,
0.619155,0xFF,,
0.619251,0xFF,,
0.619346,0x59,,
0.619442,0xFD,,
0.625657,0x04,,
0.625752,0xA1,,
0.625848,0x5A,,
0.625943,0xFF,,
0.626658,0x06,,
0.626752,0xA1,,
0.626847,0x00,,
0.626942,0x00,,
0.627037,0x58,,
0.627132,0xFF,,
0.633357,0x04,,
0.633453,0xA2,,
0.633549,0x59,,
0.633644,0xFF,,
0.634363,0x06,,
0.634459,0xA2,,
0.634554,0xFF,,
0.63465,0xFF,,
0.634745,0x59,,
0.634841,0xFD,,
0.641058,0x04,,
0.641154,0xA1,,
0.641249,0x5A,,
0.641345,0xFF,,
0.642064,0x06,,
0.642159,0xA1,,
0.642254,0x00,,
0.642349,0x00,,
0.642444,0x58,,
0.642539,0xFF,,
0.648759,0x04,,
0.648855,0xA2,,
0.64895,0x59,,
0.649046,0xFF,,
0.649766,0x06,,
0.649862,0xA2,,
0.649957,0xFF,,
0.650053,0xFF,,
0.650148,0x59,,
0.650244,0xFD,,
0.65646,0x04,,
0.656556,0xA1,,
0.656651,0x5A,,
0.656747,0xFF,,
0.657459,0x06,,
0.657553,0xA1,,
0.657648,0x00,,
0.657743,0x00,,
0.657838,0x58,,
0.657933,0xFF,,
0.664161,0x04,,
0.664256,0xA2,,
0.664352,0x59,,
0.664448,0xFF,,
0.665171,0x06,,
0.665267,0xA2,,
0.665362,0xFF,,
0.665458,0xFF,,
0.665553,0x59,,
0.665649,0xFD,,
0.671862,0x04,,
0.671957,0xA1,,
0.672053,0x5A,,
0.672148,0xFF,,
0.672862,0x06,,
0.672957,0xA1,,
0.673052,0x00,,
0.673147,0x00,,
0.673242,0x58,,
0.673337,0xFF,,
0.679563,0x04,,
0.679658,0xA2,,
0.679754,0x59,,
0.679849,0xFF,,
0.680569,0x06,,
0.680664,0xA2,,
0.68076,0xFF,,
0.680855,0xFF,,
0.680951,0x59,,
0.681046,0xFD,,
0.687262,0x04,,
0.687358,0xA1,,
0.687454,0x5A,,
0.687549,0xFF,,
0.688262,0x06,,
0.688357,0xA1,,
0.688451,0x00,,
0.688546,0x00,,
0.688641,0x58,,
0.688736,0xFF,,
0.694963,0x04,,
0.695059,0xA2,,
0.695154,0x59,,
0.69525,0xFF,,
0.695968,0x06,,
0.696063,0xA2,,
0.696159,0xFF,,
0.696254,0xFF,,
0.69635,0x59,,
0.696445,0xFD,,
0.702664,0x04,,
0.70276,0xA1,,
0.702855,0x5A,,
0.702951,0xFF,,
0.703666,0x06,,
0.703761,0xA1,,
0.703856,0x00,,
0.70395,0x00,,
0.704045,0x58,,
0.70414,0xFF,,
0.710365,0x04,,
0.71046,0xA2,,
0.710556,0x59,,
0.710652,0xFF,,
0.711369,0x06,,
0.711465,0xA2,,
0.71156,0xFF,,
0.711656,0xFF,,
0.711751,0x59,,
0.711847,0xFD,,
0.718066,0x04,,
0.718161,0xA1,,
0.718257,0x5A,,
0.718352,0xFF,,
0.719068,0x06,,
0.719163,0xA1,,
0.719258,0x00,,
0.719352,0x00,,
0.719447,0x58,,
0.719542,0xFF,,
0.725767,0x04,,
0.725862,0xA2,,
0.725958,0x59,,
0.726053,0xFF,,
0.726774,0x06,,
0.72687,0xA2,,
0.726965,0xFF,,
0.727061,0xFF,,
0.727156,0x59,,
0.727252,0xFD,,
0.733467,0x04,,
0.733563,0xA1,,
0.733659,0x5A,,
0.733754,0xFF,,
0.734469,0x06,,
0.734564,0xA1,,
0.734659,0x00,,
0.734754,0x00,,
0.734849,0x58,,
0.734943,0xFF,,
0.741168,0x04,,
0.741264,0xA2,,
0.741359,0x59,,
0.741455,0xFF,,
0.742179,0x06,,
0.742275,0xA2,,
0.74237,0xFF,,
0.742466,0xFF,,
0.742561,0x59,,
0.742657,0xFD,,
0.748869,0x04,,
0.748965,0xA1,,
0.74906,0x5A,,
0.749156,0xFF,,
0.749867,0x06,,
0.749962,0xA1,,
0.750057,0x00,,
0.750152,0x00,,
0.750247,0x58,,
0.750341,0xFF,,
0.75657,0x04,,
0.756666,0xA2,,
0.756761,0x59,,
0.756857,0xFF,,
0.757577,0x06,,
0.757672,0xA2,,
0.757768,0xFF,,
0.757863,0xFF,,
0.757959,0x59,,
0.758054,0xFD,,
0.764271,0x04,,
0.764366,0xA1,,
0.764462,0x5A,,
0.764558,0xFF,,
0.765273,0x06,,
0.765368,0xA1,,
0.765462,0x00,,
0.765557,0x00,,
0.765652,0x58,,
0.765747,0xFF,,
0.771972,0x04,,
0.772067,0xA2,,
0.772163,0x59,,
0.772258,0xFF,,
0.772977,0x06,,
0.773072,0xA2,,
0.773168,0xFF,,
0.773263,0xFF,,
0.773359,0x59,,
0.773454,0xFD,,
0.779673,0x04,,
0.779768,0xA1,,
0.779864,0x5A,,
0.779959,0xFF,,
0.780672,0x06,,
0.780766,0xA1,,
0.780861,0x00,,
0.780956,0x00,,
0.781051,0x58,,
0.781146,0xFF,,
0.787373,0x04,,
0.787469,0xA2,,
0.787565,0x59,,
0.78766,0xFF,,
0.788382,0x06,,
0.788477,0xA2,,
0.788573,0xFF,,
0.788668,0xFF,,
0.788764,0x59,,
0.788859,0xFD,,
0.795074,0x04,,
0.79517,0xA1,,
0.795265,0x5A,,
0.795361,0xFF,,
0.796076,0x06,,
0.79617,0xA1,,
0.796265,0x00,,
0.79636,0x00,,
0.796455,0x58,,
0.79655,0xFF,,
0.802775,0x04,,
0.802871,0xA2,,
0.802966,0x59,,
0.803062,0xFF,,
0.803787,0x06,,
0.803882,0xA2,,
0.803978,0xFF,,
0.804073,0xFF,,
0.804169,0x59,,
0.804264,0xFD,,
0.810476,0x04,,
0.810572,0xA1,,
0.810667,0x5A,,
0.810763,0xFF,,
0.811475,0x06,,
0.81157,0xA1,,
0.811665,0x00,,
0.811759,0x00,,
0.811854,0x58,,
0.811949,0xFF,,
0.818177,0x04,,
0.818272,0xA2,,
0.818368,0x59,,
0.818464,0xFF,,
0.819184,0x06,,
0.81928,0xA2,,
0.819375,0xFF,,
0.819471,0xFF,,
0.819566,0x59,,
0.819662,0xFD,,
0.825878,0x04,,
0.825973,0xA1,,
0.826069,0x5A,,
0.826164,0xFF,,
0.826879,0x06,,
0.826974,0xA1,,
0.827069,0x00,,
0.827163,0x00,,
0.827258,0x58,,
0.827353,0xFF,,
0.833579,0x04,,
0.833674,0xA2,,
0.83377,0x59,,
0.833865,0xFF,,
0.834584,0x06,,
0.83468,0xA2,,
0.834775,0xFF,,
0.834871,0xFF,,
0.834967,0x59,,
0.835062,0xFD,,
0.841278,0x04,,
0.841374,0xA1,,
0.84147,0x5A,,
0.841565,0xFF,,
0.842279,0x06,,
0.842374,0xA1,,
0.842469,0x00,,
0.842564,0x00,,
0.842659,0x58,,
0.842754,0xFF,,
0.84898,0x04,,
0.849076,0xA2,,
0.849171,0x59,,
0.849267,0xFF,,
0.849989,0x06,,
0.850085,0xA2,,
0.850181,0xFF,,
0.850276,0xFF,,
0.850372,0x59,,
0.850467,0xFD,,
0.856681,0x04,,
0.856777,0xA1,,
0.856872,0x5A,,
0.856968,0xFF,,
0.857684,0x06,,
0.857778,0xA1,,
0.857873,0x00,,
0.857968,0x00,,
0.858063,0x58,,
0.858158,0xFF,,
0.864381,0x04,,
0.864477,0xA2,,
0.864572,0x59,,
0.864668,0xFF,,
0.865389,0x06,,
0.865484,0xA2,,
0.86558,0xFF,,
0.865675,0xFF,,
0.865771,0x59,,
0.865866,0xFD,,
0.872081,0x04,,
0.872176,0x83,,
0.872272,0x78,,
0.872368,0xFF,,
0.879782,0x04,,
0.879877,0xA1,,
0.879973,0x5A,,
0.880068,0xFF,,
0.880785,0x06,,
0.880879,0xA1,,
0.880974,0x00,,
0.881069,0x00,,
0.881164,0x58,,
0.881259,0xFF,,
0.887483,0x04,,
0.887578,0xA2,,
0.887674,0x59,,
0.887769,0xFF,,
0.888491,0x06,,
0.888587,0xA2,,
0.888682,0xFF,,
0.888778,0xFF,,
0.888873,0x59,,
0.888969,0xFD,,
0.895184,0x04,,
0.89528,0xA1,,
0.895376,0x5A,,
0.895471,0xFF,,
0.896186,0x06,,
0.89628,0xA1,,
0.896375,0x00,,
0.89647,0x00,,
0.896565,0x58,,
0.89666,0xFF,,
0.902884,0x04,,
0.90298,0xA2,,
0.903075,0x59,,
0.903171,0xFF,,
0.903891,0x06,,
0.903987,0xA2,,
0.904082,0xFF,,
0.904178,0xFF,,
0.904273,0x59,,
0.904369,0xFD,,
0.910585,0x04,,
0.910681,0xA1,,
0.910776,0x5A,,
0.910872,0xFF,,
0.911586,0x06,,
0.911681,0xA1,,
0.911775,0x00,,
0.91187,0x00,,
0.911965,0x58,,
0.91206,0xFF,,
0.918286,0x04,,
0.918382,0xA2,,
0.918477,0x59,,
0.918573,0xFF,,
0.91929,0x06,,
0.919386,0xA2,,
0.919481,0xFF,,
0.919577,0xFF,,
0.919672,0x59,,
0.919768,0xFD,,
0.925987,0x04,,
0.926082,0xA1,,
0.926178,0x5A,,
0.926274,0xFF,,
0.926993,0x06,,
0.927088,0xA1,,
0.927183,0x00,,
0.927277,0x00,,
0.927372,0x58,,
0.927467,0xFF,,
0.933688,0x04,,
0.933783,0xA2,,
0.933879,0x59,,
0.933974,0xFF,,
0.934695,0x06,,
0.934791,0xA2,,
0.934886,0xFF,,
0.934982,0xFF,,
0.935077,0x59,,
0.935173,0xFD,,
0.941389,0x04,,
0.941484,0xA1,,
0.94158,0x5A,,
0.941675,0xFF,,
0.942391,0x06,,
0.942486,0xA1,,
0.942581,0x00,,
0.942676,0x00,,
0.94277,0x58,,
0.942865,0xFF,,
0.949089,0x04,,
0.949185,0xA2,,
0.949281,0x59,,
0.949376,0xFF,,
0.9501,0x06,,
0.950196,0xA2,,
0.950291,0xFF,,
0.950387,0xFF,,
0.950482,0x59,,
0.950578,0xFD,,
0.95679,0x04,,
0.956886,0xA1,,
0.956981,0x5A,,
0.957077,0xFF,,
0.957792,0x06,,
0.957887,0xA1,,
0.957982,0x00,,
0.958077,0x00,,
0.958171,0x58,,
0.958266,0xFF,,
0.964491,0x04,,
0.964587,0xA2,,
0.964682,0x59,,
0.964778,0xFF,,
0.9655,0x06,,
0.965596,0xA2,,
0.965691,0xFF,,
0.965787,0xFF,,
0.965882,0x59,,
0.965978,0xFD,,
0.972192,0x04,,
0.972288,0xA1,,
0.972383,0x5A,,
0.972479,0xFF,,
0.973194,0x06,,
0.973289,0xA1,,
0.973384,0x00,,
0.973479,0x00,,
0.973574,0x58,,
0.973668,0xFF,,
0.979893,0x04,,
0.979988,0xA2,,
0.980084,0x59,,
0.98018,0xFF,,
0.980899,0x06,,
0.980995,0xA2,,
0.98109,0xFF,,
0.981186,0xFF,,
0.981281,0x59,,
0.981377,0xFD,,
