Time [s],Value,Parity Error,Framing Error
0.005162,0x04,,
0.005258,0xA2,,
0.005353,0x59,,
0.005449,0xFF,,
0.006168,0x06,,
0.006264,0xA2,,
0.006359,0xFE,,
0.006455,0xFF,,
0.00655,0x5A,,
0.006646,0xFD,,
0.012863,0x04,,
0.012958,0xA1,,
0.013054,0x5A,,
0.01315,0xFF,,
0.020564,0x04,,
0.020659,0xA2,,
0.020755,0x59,,
0.02085,0xFF,,
0.021573,0x06,,
0.021669,0xA2,,
0.021764,0xFE,,
0.02186,0xFF,,
0.021955,0x5A,,
0.022051,0xFD,,
0.028265,0x04,,
0.02836,0xA1,,
0.028456,0x5A,,
0.028551,0xFF,,
0.035965,0x04,,
0.036061,0xA2,,
0.036157,0x59,,
0.036252,0xFF,,
0.036974,0x06,,
0.037069,0xA2,,
0.037165,0xFE,,
0.03726,0xFF,,
0.037356,0x5A,,
0.037451,0xFD,,
0.043666,0x04,,
0.043762,0xA1,,
0.043857,0x5A,,
0.043953,0xFF,,
0.051367,0x04,,
0.051463,0xA2,,
0.051558,0x59,,
0.051654,0xFF,,
0.052373,0x06,,
0.052468,0xA2,,
0.052564,0xFE,,
0.052659,0xFF,,
0.052755,0x5A,,
0.05285,0xFD,,
0.059068,0x04,,
0.059164,0xA1,,
0.059259,0x5A,,
0.059355,0xFF,,
0.066769,0x04,,
0.066864,0xA2,,
0.06696,0x59,,
0.067056,0xFF,,
0.067778,0x06,,
0.067873,0xA2,,
0.067969,0xFF,,
0.068064,0xFF,,
0.06816,0x59,,
0.068255,0xFD,,
0.07447,0x04,,
0.074565,0xA1,,
0.074661,0x5A,,
0.074756,0xFF,,
0.082171,0x04,,
0.082266,0xA2,,
0.082362,0x59,,
0.082457,0xFF,,
0.083175,0x06,,
0.083271,0xA2,,
0.083366,0xFF,,
0.083462,0xFF,,
0.083557,0x59,,
0.083653,0xFD,,
0.089871,0x04,,
0.089967,0xA1,,
0.090063,0x5A,,
0.090158,0xFF,,
0.097572,0x04,,
0.097668,0xA2,,
0.097763,0x59,,
0.097859,0xFF,,
0.098578,0x06,,
0.098674,0xA2,,
0.098769,0xFF,,
0.098865,0xFF,,
0.09896,0x59,,
0.099056,0xFD,,
0.105273,0x04,,
0.105369,0xA1,,
0.105464,0x5A,,
0.10556,0xFF,,
0.112974,0x04,,
0.113069,0xA2,,
0.113165,0x59,,
0.113261,0xFF,,
0.113983,0x06,,
0.114079,0xA2,,
0.114174,0xFF,,
0.11427,0xFF,,
0.114365,0x59,,
0.114461,0xFD,,
0.120675,0x04,,
0.12077,0xA1,,
0.120866,0x5A,,
0.120961,0xFF,,
0.128376,0x04,,
0.128471,0xA2,,
0.128567,0x59,,
0.128662,0xFF,,
0.129382,0x06,,
0.129478,0xA2,,
0.129573,0xFF,,
0.129669,0xFF,,
0.129764,0x59,,
0.12986,0xFD,,
0.136076,0x04,,
0.136172,0xA1,,
0.136268,0x5A,,
0.136363,0xFF,,
0.143776,0x04,,
0.143872,0xA2,,
0.143967,0x59,,
0.144063,0xFF,,
0.144787,0x06,,
0.144883,0xA2,,
0.144978,0xFF,,
0.145074,0xFF,,
0.145169,0x59,,
0.145265,0xFD,,
0.151476,0x04,,
0.151572,0xA1,,
0.151667,0x5A,,
0.151763,0xFF,,
0.159177,0x04,,
0.159273,0xA2,,
0.159368,0x59,,
0.159464,0xFF,,
0.160187,0x06,,
0.160283,0xA2,,
0.160378,0xFF,,
0.160474,0xFF,,
0.160569,0x59,,
0.160665,0xFD,,
0.166878,0x04,,
0.166973,0xA1,,
0.167069,0x5A,,
0.167165,0xFF,,
0.174579,0x04,,
0.174674,0xA2,,
0.17477,0x59,,
0.174865,0xFF,,
0.175587,0x06,,
0.175682,0xA2,,
0.175778,0xFF,,
0.175873,0xFF,,
0.175969,0x59,,
0.176064,0xFD,,
0.18228,0x04,,
0.182375,0xA1,,
0.182471,0x5A,,
0.182566,0xFF,,
0.18998,0x04,,
0.190076,0xA2,,
0.190172,0x59,,
0.190267,0xFF,,
0.190986,0x06,,
0.191081,0xA2,,
0.191177,0xFF,,
0.191272,0xFF,,
0.191368,0x59,,
0.191463,0xFD,,
0.197681,0x04,,
0.197777,0xA1,,
0.197872,0x5A,,
0.197968,0xFF,,
0.205382,0x04,,
0.205478,0xA2,,
0.205573,0x59,,
0.205669,0xFF,,
0.206391,0x06,,
0.206486,0xA2,,
0.206582,0xFF,,
0.206677,0xFF,,
0.206773,0x59,,
0.206868,0xFD,,
0.213083,0x04,,
0.213179,0xA1,,
0.213274,0x5A,,
0.21337,0xFF,,
0.220784,0x04,,
0.220879,0xA2,,
0.220975,0x59,,
0.221071,0xFF,,
0.221795,0x06,,
0.221891,0xA2,,
0.221986,0xFF,,
0.222082,0xFF,,
0.222177,0x59,,
0.222273,0xFD,,
0.228485,0x04,,
0.22858,0xA1,,
0.228676,0x5A,,
0.228771,0xFF,,
0.236186,0x04,,
0.236281,0xA2,,
0.236377,0x59,,
0.236472,0xFF,,
0.237194,0x06,,
0.23729,0xA2,,
0.237385,0xFF,,
0.237481,0xFF,,
0.237576,0x59,,
0.237672,0xFD,,
0.243886,0x04,,
0.243982,0xA1,,
0.244078,0x5A,,
0.244173,0xFF,,
0.251587,0x04,,
0.251683,0xA2,,
0.251778,0x59,,
0.251874,0xFF,,
0.252593,0x06,,
0.252689,0xA2,,
0.252784,0xFF,,
0.25288,0xFF,,
0.252975,0x59,,
0.253071,0xFD,,
0.259288,0x04,,
0.259384,0xA1,,
0.259479,0x5A,,
0.259575,0xFF,,
0.266989,0x04,,
0.267085,0xA2,,
0.26718,0x59,,
0.267276,0xFF,,
0.267998,0x06,,
0.268094,0xA2,,
0.268189,0xFF,,
0.268285,0xFF,,
0.26838,0x59,,
0.268476,0xFD,,
0.27469,0x04,,
0.274785,0xA1,,
0.274881,0x5A,,
0.274977,0xFF,,
0.282391,0x04,,
0.282486,0xA2,,
0.282582,0x59,,
0.282677,0xFF,,
0.283397,0x06,,
0.283492,0xA2,,
0.283588,0xFF,,
0.283683,0xFF,,
0.283779,0x59,,
0.283874,0xFD,,
0.290092,0x04,,
0.290187,0xA1,,
0.290283,0x5A,,
0.290378,0xFF,,
0.297792,0x04,,
0.297888,0xA2,,
0.297983,0x59,,
0.298079,0xFF,,
0.298802,0x06,,
0.298897,0xA2,,
0.298993,0xFF,,
0.299088,0xFF,,
0.299184,0x59,,
0.299279,0xFD,,
0.305493,0x04,,
0.305589,0x83,,
0.305684,0x78,,
0.30578,0xFF,,
0.313194,0x04,,
0.31329,0xA1,,
0.313385,0x5A,,
0.313481,0xFF,,
0.320895,0x04,,
0.32099,0xA2,,
0.321086,0x59,,
0.321182,0xFF,,
0.321906,0x06,,
0.322002,0xA2,,
0.322097,0xFF,,
0.322193,0xFF,,
0.322288,0x59,,
0.322384,0xFD,,
0.328596,0x04,,
0.328691,0xA1,,
0.328787,0x5A,,
0.328882,0xFF,,
0.336297,0x04,,
0.336392,0xA2,,
0.336488,0x59,,
0.336583,0xFF,,
0.337304,0x06,,
0.337399,0xA2,,
0.337495,0xFF,,
0.33759,0xFF,,
0.337686,0x59,,
0.337781,0xFD,,
0.343996,0x04,,
0.344092,0xA1,,
0.344188,0x5A,,
0.344283,0xFF,,
0.351697,0x04,,
0.351793,0xA2,,
0.351888,0x59,,
0.351984,0xFF,,
0.352711,0x06,,
0.352807,0xA2,,
0.352902,0xFF,,
0.352998,0xFF,,
0.353093,0x59,,
0.353189,0xFD,,
0.359398,0x04,,
0.359494,0xA1,,
0.359589,0x5A,,
0.359685,0xFF,,
0.367099,0x04,,
0.367195,0xA2,,
0.36729,0x59,,
0.367386,0xFF,,
0.368109,0x06,,
0.368204,0xA2,,
0.3683,0xFF,,
0.368395,0xFF,,
0.368491,0x59,,
0.368586,0xFD,,
0.3748,0x04,,
0.374895,0xA1,,
0.374991,0x5A,,
0.375087,0xFF,,
0.382501,0x04,,
0.382596,0xA2,,
0.382692,0x59,,
0.382787,0xFF,,
0.383508,0x06,,
0.383604,0xA2,,
0.383699,0xFF,,
0.383795,0xFF,,
0.38389,0x59,,
0.383986,0xFD,,
0.390202,0x04,,
0.390297,0xA1,,
0.390393,0x5A,,
0.390488,0xFF,,
0.397902,0x04,,
0.397998,0xA2,,
0.398094,0x59,,
0.398189,0xFF,,
0.398907,0x06,,
0.399003,0xA2,,
0.399098,0xFF,,
0.399194,0xFF,,
0.399289,0x59,,
0.399385,0xFD,,
0.405603,0x04,,
0.405699,0xA1,,
0.405794,0x5A,,
0.40589,0xFF,,
0.413304,0x04,,
0.4134,0xA2,,
0.413495,0x59,,
0.413591,0xFF,,
0.414315,0x06,,
0.41441,0xA2,,
0.414506,0xFF,,
0.414601,0xFF,,
0.414697,0x59,,
0.414792,0xFD,,
0.421005,0x04,,
0.421101,0xA1,,
0.421196,0x5A,,
0.421292,0xFF,,
0.428706,0x04,,
0.428801,0xA2,,
0.428897,0x59,,
0.428993,0xFF,,
0.429712,0x06,,
0.429808,0xA2,,
0.429903,0xFF,,
0.429999,0xFF,,
0.430094,0x59,,
0.43019,0xFD,,
0.436407,0x04,,
0.436502,0xA1,,
0.436598,0x5A,,
0.436693,0xFF,,
0.444108,0x04,,
0.444203,0xA2,,
0.444299,0x59,,
0.444394,0xFF,,
0.445117,0x06,,
0.445213,0xA2,,
0.445308,0xFF,,
0.445404,0xFF,,
0.445499,0x59,,
0.445595,0xFD,,
0.451808,0x04,,
0.451904,0xA1,,
0.452,0x5A,,
0.452095,0xFF,,
0.459509,0x04,,
0.459605,0xA2,,
0.4597,0x59,,
0.459796,0xFF,,
0.460516,0x06,,
0.460612,0xA2,,
0.460707,0xFF,,
0.460803,0xFF,,
0.460898,0x59,,
0.460994,0xFD,,
0.46721,0x04,,
0.467306,0xA1,,
0.467401,0x5A,,
0.467497,0xFF,,
0.474911,0x04,,
0.475007,0xA2,,
0.475102,0x59,,
0.475198,0xFF,,
0.475922,0x06,,
0.476018,0xA2,,
0.476113,0xFF,,
0.476209,0xFF,,
0.476304,0x59,,
0.4764,0xFD,,
0.482612,0x04,,
0.482707,0xA1,,
0.482803,0x5A,,
0.482899,0xFF,,
0.490313,0x04,,
0.490408,0xA2,,
0.490504,0x59,,
0.490599,0xFF,,
0.49132,0x06,,
0.491415,0xA2,,
0.491511,0xFF,,
0.491606,0xFF,,
0.491702,0x59,,
0.491797,0xFD,,
0.498013,0x04,,
0.498109,0xA1,,
0.498205,0x5A,,
0.4983,0xFF,,
0.505714,0x04,,
0.50581,0xA2,,
0.505905,0x59,,
0.506001,0xFF,,
0.506719,0x06,,
0.506814,0xA2,,
0.50691,0xFF,,
0.507005,0xFF,,
0.507101,0x59,,
0.507197,0xFD,,
0.513413,0x04,,
0.513509,0xA1,,
0.513604,0x5A,,
0.5137,0xFF,,
0.521115,0x04,,
0.521211,0xA2,,
0.521306,0x59,,
0.521402,0xFF,,
0.522124,0x06,,
0.52222,0xA2,,
0.522315,0xFF,,
0.522411,0xFF,,
0.522506,0x59,,
0.522602,0xFD,,
0.528815,0x04,,
0.52891,0xA1,,
0.529006,0x5A,,
0.529102,0xFF,,
0.536516,0x04,,
0.536611,0xA2,,
0.536707,0x59,,
0.536802,0xFF,,
0.537524,0x06,,
0.53762,0xA2,,
0.537715,0xFF,,
0.537811,0xFF,,
0.537906,0x59,,
0.538002,0xFD,,
0.544217,0x04,,
0.544312,0xA1,,
0.544408,0x5A,,
0.544503,0xFF,,
0.551917,0x04,,
0.552013,0xA2,,
0.552109,0x59,,
0.552204,0xFF,,
0.552929,0x06,,
0.553025,0xA2,,
0.55312,0xFF,,
0.553216,0xFF,,
0.553311,0x59,,
0.553407,0xFD,,
0.559618,0x04,,
0.559714,0xA1,,
0.559809,0x5A,,
0.559905,0xFF,,
0.567319,0x04,,
0.567415,0xA2,,
0.56751,0x59,,
0.567606,0xFF,,
0.568327,0x06,,
0.568422,0xA2,,
0.568518,0xFF,,
0.568613,0xFF,,
0.568709,0x59,,
0.568804,0xFD,,
0.57502,0x04,,
0.575116,0xA1,,
0.575211,0x5A,,
0.575307,0xFF,,
0.582721,0x04,,
0.582816,0xA2,,
0.582912,0x59,,
0.583008,0xFF,,
0.583726,0x06,,
0.583821,0xA2,,
0.583917,0xFD,,
0.584012,0xFF,,
0.584108,0x5B,,
0.584203,0xFD,,
0.590422,0x04,,
0.590517,0xA1,,
0.590613,0x5A,,
0.590708,0xFF,,
0.598123,0x04,,
0.598218,0xA2,,
0.598314,0x59,,
0.598409,0xFF,,
0.599131,0x06,,
0.599226,0xA2,,
0.599322,0xFD,,
0.599417,0xFF,,
0.599513,0x5B,,
0.599608,0xFD,,
0.605823,0x04,,
0.605919,0xA1,,
0.606015,0x5A,,
0.60611,0xFF,,
0.613524,0x04,,
0.61362,0xA2,,
0.613715,0x59,,
0.613811,0xFF,,
0.614531,0x06,,
0.614626,0xA2,,
0.614722,0xFD,,
0.614817,0xFF,,
0.614913,0x5B,,
0.615008,0xFD,,
0.621225,0x04,,
0.621321,0xA1,,
0.621416,0x5A,,
0.621512,0xFF,,
0.628926,0x04,,
0.629022,0xA2,,
0.629117,0x59,,
0.629213,0xFF,,
0.629936,0x06,,
0.630031,0xA2,,
0.630127,0xFD,,
0.630222,0xFF,,
0.630318,0x5B,,
0.630413,0xFD,,
0.636627,0x04,,
0.636722,0xA1,,
0.636818,0x5A,,
0.636914,0xFF,,
0.644328,0x04,,
0.644423,0xA2,,
0.644519,0x59,,
0.644614,0xFF,,
0.645335,0x06,,
0.64543,0xA2,,
0.645526,0xFD,,
0.645621,0xFF,,
0.645717,0x5B,,
0.645813,0xFD,,
0.652029,0x04,,
0.652124,0xA1,,
0.65222,0x5A,,
0.652315,0xFF,,
0.659729,0x04,,
0.659825,0xA2,,
0.659921,0x59,,
0.660016,0xFF,,
0.66074,0x06,,
0.660836,0xA2,,
0.660931,0xFD,,
0.661027,0xFF,,
0.661122,0x5B,,
0.661218,0xFD,,
0.66743,0x04,,
0.667526,0xA1,,
0.667621,0x5A,,
0.667717,0xFF,,
0.675131,0x04,,
0.675227,0xA2,,
0.675322,0x59,,
0.675418,0xFF,,
0.67614,0x06,,
0.676236,0xA2,,
0.676331,0xFD,,
0.676427,0xFF,,
0.676522,0x5B,,
0.676618,0xFD,,
0.682832,0x04,,
0.682927,0xA1,,
0.683023,0x5A,,
0.683119,0xFF,,
0.690533,0x04,,
0.690628,0xA2,,
0.690724,0x59,,
0.690819,0xFF,,
0.691539,0x06,,
0.691635,0xA2,,
0.69173,0xFD,,
0.691826,0xFF,,
0.691921,0x5B,,
0.692017,0xFD,,
0.698234,0x04,,
0.698329,0xA1,,
0.698425,0x5A,,
0.69852,0xFF,,
0.705933,0x04,,
0.706029,0xA2,,
0.706125,0x59,,
0.70622,0xFF,,
0.706938,0x06,,
0.707034,0xA2,,
0.707129,0xFD,,
0.707225,0xFF,,
0.70732,0x5B,,
0.707416,0xFD,,
0.713634,0x04,,
0.71373,0xA1,,
0.713825,0x5A,,
0.713921,0xFF,,
0.721335,0x04,,
0.721431,0xA2,,
0.721526,0x59,,
0.721622,0xFF,,
0.722343,0x06,,
0.722439,0xA2,,
0.722534,0xFD,,
0.72263,0xFF,,
0.722725,0x5B,,
0.722821,0xFD,,
0.729036,0x04,,
0.729132,0xA1,,
0.729227,0x5A,,
0.729323,0xFF,,
0.736737,0x04,,
0.736832,0xA2,,
0.736928,0x59,,
0.737024,0xFF,,
0.737742,0x06,,
0.737837,0xA2,,
0.737933,0xFD,,
0.738028,0xFF,,
0.738124,0x5B,,
0.738219,0xFD,,
0.744438,0x04,,
0.744533,0xA1,,
0.744629,0x5A,,
0.744724,0xFF,,
0.752139,0x04,,
0.752234,0xA2,,
0.75233,0x59,,
0.752425,0xFF,,
0.753147,0x06,,
0.753242,0xA2,,
0.753338,0xFD,,
0.753433,0xFF,,
0.753529,0x5B,,
0.753624,0xFD,,
0.759839,0x04,,
0.759935,0xA1,,
0.760031,0x5A,,
0.760126,0xFF,,
0.76754,0x04,,
0.767636,0xA2,,
0.767731,0x59,,
0.767827,0xFF,,
0.768546,0x06,,
0.768641,0xA2,,
0.768737,0xFD,,
0.768832,0xFF,,
0.768928,0x5B,,
0.769023,0xFD,,
0.775241,0x04,,
0.775337,0xA1,,
0.775432,0x5A,,
0.775528,0xFF,,
0.782942,0x04,,
0.783038,0xA2,,
0.783133,0x59,,
0.783229,0xFF,,
0.783951,0x06,,
0.784046,0xA2,,
0.784142,0xFD,,
0.784237,0xFF,,
0.784333,0x5B,,
0.784429,0xFD,,
0.790643,0x04,,
0.790738,0xA1,,
0.790834,0x5A,,
0.79093,0xFF,,
0.798344,0x04,,
0.798439,0xA2,,
0.798535,0x59,,
0.79863,0xFF,,
0.79935,0x06,,
0.799445,0xA2,,
0.799541,0xFD,,
0.799636,0xFF,,
0.799732,0x5B,,
0.799827,0xFD,,
0.806045,0x04,,
0.80614,0xA1,,
0.806236,0x5A,,
0.806331,0xFF,,
0.813745,0x04,,
0.813841,0x83,,
0.813937,0x78,,
0.814032,0xFF,,
0.821446,0x04,,
0.821542,0xA1,,
0.821637,0x5A,,
0.821733,0xFF,,
0.829147,0x04,,
0.829243,0xA2,,
0.829338,0x59,,
0.829434,0xFF,,
0.830153,0x06,,
0.830249,0xA2,,
0.830344,0xFD,,
0.83044,0xFF,,
0.830535,0x5B,,
0.830631,0xFD,,
0.836848,0x04,,
0.836944,0xA1,,
0.837039,0x5A,,
0.837135,0xFF,,
0.844549,0x04,,
0.844644,0xA2,,
0.84474,0x59,,
0.844836,0xFF,,
0.845558,0x06,,
0.845654,0xA2,,
0.845749,0xFD,,
0.845845,0xFF,,
0.84594,0x5B,,
0.846036,0xFD,,
0.852249,0x04,,
0.852344,0xA1,,
0.85244,0x5A,,
0.852535,0xFF,,
0.859951,0x04,,
0.860046,0xA2,,
0.860142,0x59,,
0.860237,0xFF,,
0.860964,0x06,,
0.86106,0xA2,,
0.861155,0xFD,,
0.861251,0xFF,,
0.861346,0x5B,,
0.861442,0xFD,,
0.867651,0x04,,
0.867747,0xA1,,
0.867843,0x5A,,
0.867938,0xFF,,
0.875352,0x04,,
0.875448,0xA2,,
0.875543,0x59,,
0.875639,0xFF,,
0.876357,0x06,,
0.876453,0xA2,,
0.876548,0xFD,,
0.876644,0xFF,,
0.876739,0x5B,,
0.876835,0xFD,,
0.883052,0x04,,
0.883148,0xA1,,
0.883243,0x5A,,
0.883339,0xFF,,
0.890754,0x04,,
0.890849,0xA2,,
0.890945,0x59,,
0.891041,0xFF,,
0.891762,0x06,,
0.891858,0xA2,,
0.891953,0xFD,,
0.892049,0xFF,,
0.892144,0x5B,,
0.89224,0xFD,,
0.898454,0x04,,
0.898549,0xA1,,
0.898645,0x5A,,
0.89874,0xFF,,
0.906154,0x04,,
0.906249,0xA2,,
0.906345,0x59,,
0.90644,0xFF,,
0.90716,0x06,,
0.907255,0xA2,,
0.907351,0xFD,,
0.907446,0xFF,,
0.907542,0x5B,,
0.907637,0xFD,,
0.913854,0x04,,
0.91395,0xA1,,
0.914046,0x5A,,
0.914141,0xFF,,
0.921555,0x04,,
0.921651,0xA2,,
0.921746,0x59,,
0.921842,0xFF,,
0.922567,0x06,,
0.922663,0xA2,,
0.922758,0xFD,,
0.922854,0xFF,,
0.922949,0x5B,,
0.923045,0xFD,,
0.929256,0x04,,
0.929352,0xA1,,
0.929447,0x5A,,
0.929543,0xFF,,
0.936957,0x04,,
0.937053,0xA2,,
0.937148,0x59,,
0.937244,0xFF,,
0.937967,0x06,,
0.938062,0xA2,,
0.938158,0xFD,,
0.938253,0xFF,,
0.938349,0x5B,,
0.938444,0xFD,,
0.944658,0x04,,
0.944753,0xA1,,
0.944849,0x5A,,
0.944945,0xFF,,
0.952359,0x04,,
0.952454,0xA2,,
0.95255,0x59,,
0.952645,0xFF,,
0.953366,0x06,,
0.953461,0xA2,,
0.953557,0xFD,,
0.953652,0xFF,,
0.953748,0x5B,,
0.953843,0xFD,,
0.96006,0x04,,
0.960155,0xA1,,
0.960251,0x5A,,
0.960346,0xFF,,
0.96776,0x04,,
0.967856,0xA2,,
0.967952,0x59,,
0.968047,0xFF,,
0.968771,0x06,,
0.968866,0xA2,,
0.968962,0xFD,,
0.969057,0xFF,,
0.969153,0x5B,,
0.969248,0xFD,,
0.975461,0x04,,
0.975557,0xA1,,
0.975652,0x5A,,
0.975748,0xFF,,
0.983162,0x04,,
0.983258,0xA2,,
0.983353,0x59,,
0.983449,0xFF,,
0.984175,0x06,,
0.984271,0xA2,,
0.984366,0xFD,,
0.984462,0xFF,,
0.984557,0x5B,,
0.984653,0xFD,,
0.990863,0x04,,
0.990959,0xA1,,
0.991054,0x5A,,
0.99115,0xFF,,
0.998564,0x04,,
0.998659,0xA2,,
0.998755,0x59,,
0.998851,0xFF,,
0.999568,0x06,,
0.999664,0xA2,,
0.999759,0xFD,,
0.999855,0xFF,,
0.99995,0x5B,,
1.000046,0xFD,,
1.006265,0x04,,
1.00636,0xA1,,
1.006456,0x5A,,
1.006551,0xFF,,
1.013966,0x04,,
1.014061,0xA2,,
1.014157,0x59,,
1.014252,0xFF,,
1.014973,0x06,,
1.015069,0xA2,,
1.015164,0xFD,,
1.01526,0xFF,,
1.015355,0x5B,,
1.015451,0xFD,,
1.021666,0x04,,
1.021762,0xA1,,
1.021858,0x5A,,
1.021953,0xFF,,
1.029367,0x04,,
1.029463,0xA2,,
1.029558,0x59,,
1.029654,0xFF,,
1.030378,0x06,,
1.030474,0xA2,,
1.030569,0xFD,,
1.030665,0xFF,,
1.03076,0x5B,,
1.030856,0xFD,,
1.037068,0x04,,
1.037164,0xA1,,
1.037259,0x5A,,
1.037355,0xFF,,
1.044769,0x04,,
1.044865,0xA2,,
1.04496,0x59,,
1.045056,0xFF,,
1.045777,0x06,,
1.045872,0xA2,,
1.045968,0xFD,,
1.046063,0xFF,,
1.046159,0x5B,,
1.046254,0xFD,,
1.05247,0x04,,
1.052565,0xA1,,
1.052661,0x5A,,
1.052757,0xFF,,
1.060171,0x04,,
1.060266,0xA2,,
1.060362,0x59,,
1.060457,0xFF,,
1.061176,0x06,,
1.061271,0xA2,,
1.061367,0xFD,,
1.061462,0xFF,,
1.061558,0x5B,,
1.061654,0xFD,,
1.06787,0x04,,
1.067966,0xA1,,
1.068062,0x5A,,
1.068157,0xFF,,
1.075571,0x04,,
1.075667,0xA2,,
1.075762,0x59,,
1.075858,0xFF,,
1.076581,0x06,,
1.076677,0xA2,,
1.076772,0xFD,,
1.076868,0xFF,,
1.076963,0x5B,,
1.077059,0xFD,,
1.083273,0x04,,
1.083369,0xA1,,
1.083464,0x5A,,
1.08356,0xFF,,
1.090974,0x04,,
1.09107,0xA2,,
1.091165,0x59,,
1.091261,0xFF,,
1.09198,0x06,,
1.092076,0xA2,,
1.092171,0xFD,,
1.092267,0xFF,,
1.092362,0x5B,,
1.092458,0xFD,,
1.098674,0x04,,
1.098769,0xA1,,
1.098865,0x5A,,
1.098961,0xFF,,
1.106375,0x04,,
1.10647,0xA2,,
1.106566,0x59,,
1.106661,0xFF,,
1.107385,0x06,,
1.107481,0xA2,,
1.107576,0xFF,,
1.107672,0xFF,,
1.107767,0x59,,
1.107863,0xFD,,
1.114076,0x04,,
1.114171,0xA1,,
1.114267,0x5A,,
1.114362,0xFF,,
1.121776,0x04,,
1.121872,0xA2,,
1.121968,0x59,,
1.122063,0xFF,,
1.122785,0x06,,
1.122881,0xA2,,
1.122976,0xFF,,
1.123072,0xFF,,
1.123167,0x59,,
1.123263,0xFD,,
1.129477,0x04,,
1.129573,0xA1,,
1.129668,0x5A,,
1.129764,0xFF,,
1.137178,0x04,,
1.137274,0xA2,,
1.137369,0x59,,
1.137465,0xFF,,
1.138183,0x06,,
1.138278,0xA2,,
1.138374,0xFF,,
1.138469,0xFF,,
1.138565,0x59,,
1.13866,0xFD,,
1.144879,0x04,,
1.144975,0xA1,,
1.14507,0x5A,,
1.145166,0xFF,,
1.15258,0x04,,
1.152675,0xA2,,
1.152771,0x59,,
1.152867,0xFF,,
1.153588,0x06,,
1.153683,0xA2,,
1.153779,0xFF,,
1.153874,0xFF,,
1.15397,0x59,,
1.154065,0xFD,,
1.160281,0x04,,
1.160376,0xA1,,
1.160472,0x5A,,
1.160567,0xFF,,
1.167982,0x04,,
1.168077,0xA2,,
1.168173,0x59,,
1.168268,0xFF,,
1.168987,0x06,,
1.169082,0xA2,,
1.169178,0xFF,,
1.169273,0xFF,,
1.169369,0x59,,
1.169464,0xFD,,
1.175682,0x04,,
1.175778,0xA1,,
1.175874,0x5A,,
1.175969,0xFF,,
1.183383,0x04,,
1.183479,0xA2,,
1.183574,0x59,,
1.18367,0xFF,,
1.184388,0x06,,
1.184484,0xA2,,
1.184579,0xFF,,
1.184675,0xFF,,
1.18477,0x59,,
1.184866,0xFD,,
1.191084,0x04,,
1.19118,0xA1,,
1.191275,0x5A,,
1.191371,0xFF,,
1.198785,0x04,,
1.198881,0xA2,,
1.198976,0x59,,
1.199072,0xFF,,
1.199793,0x06,,
1.199889,0xA2,,
1.199984,0xFF,,
1.20008,0xFF,,
1.200176,0x59,,
1.200271,0xFD,,
1.206486,0x04,,
1.206581,0xA1,,
1.206677,0x5A,,
1.206773,0xFF,,
1.214186,0x04,,
1.214281,0xA2,,
1.214377,0x59,,
1.214472,0xFF,,
1.215191,0x06,,
1.215287,0xA2,,
1.215382,0xFF,,
1.215478,0xFF,,
1.215573,0x59,,
1.215669,0xFD,,
1.221888,0x04,,
1.221983,0xA1,,
1.222079,0x5A,,
1.222174,0xFF,,
1.229588,0x04,,
1.229684,0xA2,,
1.22978,0x59,,
1.229875,0xFF,,
1.230596,0x06,,
1.230692,0xA2,,
1.230787,0xFF,,
1.230883,0xFF,,
1.230978,0x59,,
1.231074,0xFD,,
1.237289,0x04,,
1.237385,0xA1,,
1.23748,0x5A,,
1.237576,0xFF,,
1.24499,0x04,,
1.245086,0xA2,,
1.245181,0x59,,
1.245277,0xFF,,
1.245996,0x06,,
1.246092,0xA2,,
1.246187,0xFF,,
1.246283,0xFF,,
1.246378,0x59,,
1.246474,0xFD,,
1.25269,0x04,,
1.252785,0xA1,,
1.252881,0x5A,,
1.252977,0xFF,,
1.260391,0x04,,
1.260486,0xA2,,
1.260582,0x59,,
1.260677,0xFF,,
1.261401,0x06,,
1.261497,0xA2,,
1.261592,0xFF,,
1.261688,0xFF,,
1.261783,0x59,,
1.261879,0xFD,,
1.268092,0x04,,
1.268187,0xA1,,
1.268283,0x5A,,
1.268378,0xFF,,
1.275792,0x04,,
1.275888,0xA2,,
1.275984,0x59,,
1.276079,0xFF,,
1.276799,0x06,,
1.276894,0xA2,,
1.27699,0xFF,,
1.277085,0xFF,,
1.277181,0x59,,
1.277276,0xFD,,
1.283493,0x04,,
1.283589,0xA1,,
1.283684,0x5A,,
1.28378,0xFF,,
1.291193,0x04,,
1.291289,0xA2,,
1.291384,0x59,,
1.29148,0xFF,,
1.292198,0x06,,
1.292293,0xA2,,
1.292389,0xFF,,
1.292484,0xFF,,
1.29258,0x59,,
1.292675,0xFD,,
1.298894,0x04,,
1.29899,0xA1,,
1.299085,0x5A,,
1.299181,0xFF,,
1.306595,0x04,,
1.30669,0xA2,,
1.306786,0x59,,
1.306882,0xFF,,
1.307599,0x06,,
1.307695,0xA2,,
1.30779,0xFF,,
1.307886,0xFF,,
1.307981,0x59,,
1.308077,0xFD,,
1.314296,0x04,,
1.314391,0xA1,,
1.314487,0x5A,,
1.314582,0xFF,,
1.321997,0x04,,
1.322092,0x83,,
1.322188,0x78,,
1.322283,0xFF,,
1.329697,0x04,,
1.329793,0xA1,,
1.329889,0x5A,,
1.329984,0xFF,,
1.337398,0x04,,
1.337494,0xA2,,
1.337589,0x59,,
1.337685,0xFF,,
1.338409,0x06,,
1.338504,0xA2,,
1.3386,0xFF,,
1.338695,0xFF,,
1.338791,0x59,,
1.338887,0xFD,,
1.345099,0x04,,
1.345195,0xA1,,
1.34529,0x5A,,
1.345386,0xFF,,
1.3528,0x04,,
1.352896,0xA2,,
1.352991,0x59,,
1.353087,0xFF,,
1.353807,0x06,,
1.353902,0xA2,,
1.353998,0xFF,,
1.354093,0xFF,,
1.354189,0x59,,
1.354284,0xFD,,
1.360501,0x04,,
1.360596,0xA1,,
1.360692,0x5A,,
1.360788,0xFF,,
1.368202,0x04,,
1.368297,0xA2,,
1.368393,0x59,,
1.368488,0xFF,,
1.36921,0x06,,
1.369305,0xA2,,
1.369401,0xFF,,
1.369496,0xFF,,
1.369592,0x59,,
1.369687,0xFD,,
1.375903,0x04,,
1.375998,0xA1,,
1.376094,0x5A,,
1.376189,0xFF,,
1.383603,0x04,,
1.383699,0xA2,,
1.383795,0x59,,
1.38389,0xFF,,
1.384609,0x06,,
1.384704,0xA2,,
1.3848,0xFF,,
1.384895,0xFF,,
1.384991,0x59,,
1.385086,0xFD,,
1.391304,0x04,,
1.3914,0xA1,,
1.391495,0x5A,,
1.391591,0xFF,,
1.399005,0x04,,
1.399101,0xA2,,
1.399196,0x59,,
