Time [s],Value,Parity Error,Framing Error
5.198709,0x00,,Error
5.277429,0xFF,,
5.277568,0xFF,,
5.278721,0xFF,,
5.278838,0xFF,,
5.278963,0xDF,,
5.279051,0xDF,,
5.279134,0xFF,,
5.279218,0x22,,
5.279301,0x3E,,Error
5.279385,0xF2,,Error
5.279474,0x3C,,
5.279558,0x04,,
5.279641,0x02,,Error
5.279735,0x00,,Error
5.279859,0x00,,Error
5.279944,0x00,,Error
5.280035,0x08,,Error
5.280279,0x00,,Error
5.280374,0x00,,Error
5.280527,0x00,,Error
5.280639,0x00,,Error
5.321748,0xFE,,
5.935414,0x04,,
5.935509,0x82,,
5.935605,0x79,,
5.9357,0xFF,,
5.936411,0x04,,
5.936506,0x82,,
5.936602,0x79,,
5.936697,0xFF,,
5.943115,0x04,,
5.94321,0x92,,
5.943306,0x69,,
5.943401,0xFF,,
5.944122,0x06,,
5.944218,0x92,,
5.944313,0x03,,
5.944409,0x02,,
5.944504,0x62,,
5.9446,0xFF,,
5.950815,0x04,,
5.950911,0x83,,
5.951007,0x78,,
5.951102,0xFF,,
5.958516,0x04,,
5.958612,0xA1,,
5.958707,0x5A,,
5.958803,0xFF,,
5.966216,0x04,,
5.966312,0xA2,,
5.966407,0x59,,
5.966503,0xFF,,
5.967226,0x06,,
5.967322,0xA2,,
5.967417,0xFE,,
5.967513,0xFF,,
5.967608,0x5A,,
5.967704,0xFD,,
5.973916,0x04,,
5.974012,0xA1,,
5.974107,0x5A,,
5.974203,0xFF,,
5.981618,0x04,,
5.981713,0xA2,,
5.981809,0x59,,
5.981905,0xFF,,
5.982624,0x06,,
5.982719,0xA2,,
5.982815,0xFE,,
5.982911,0xFF,,
5.983006,0x5A,,
5.983102,0xFD,,
5.989319,0x04,,
5.989414,0xA1,,
5.98951,0x5A,,
5.989605,0xFF,,
5.99702,0x04,,
5.997115,0xA2,,
5.997211,0x59,,
5.997306,0xFF,,
5.998027,0x06,,
5.998123,0xA2,,
5.998218,0xFE,,
5.998314,0xFF,,
5.998409,0x5A,,
5.998505,0xFD,,
6.004719,0x04,,
6.004815,0xA1,,
6.004911,0x5A,,
6.005006,0xFF,,
6.01242,0x04,,
6.012516,0xA2,,
6.012611,0x59,,
6.012707,0xFF,,
6.013426,0x06,,
6.013522,0xA2,,
6.013617,0xFE,,
6.013713,0xFF,,
6.013808,0x5A,,
6.013904,0xFD,,
6.020121,0x04,,
6.020217,0xA1,,
6.020312,0x5A,,
6.020408,0xFF,,
6.027822,0x04,,
6.027918,0xA2,,
6.028013,0x59,,
6.028109,0xFF,,
6.028831,0x06,,
6.028927,0xA2,,
6.029022,0xFE,,
6.029118,0xFF,,
6.029213,0x5A,,
6.029309,0xFD,,
6.035523,0x04,,
6.035618,0xA1,,
6.035714,0x5A,,
6.03581,0xFF,,
6.043224,0x04,,
6.043319,0xA2,,
6.043415,0x59,,
6.04351,0xFF,,
6.050924,0x04,,
6.05102,0xA2,,
6.051116,0x59,,
6.051211,0xFF,,
6.051935,0x06,,
6.05203,0xA2,,
6.052126,0xFE,,
6.052221,0xFF,,
6.052317,0x5A,,
6.052412,0xFD,,
6.058625,0x04,,
6.058721,0xA1,,
6.058817,0x5A,,
6.058912,0xFF,,
6.066326,0x04,,
6.066422,0xA2,,
6.066517,0x59,,
6.066613,0xFF,,
6.067336,0x06,,
6.067432,0xA2,,
6.067527,0xFE,,
6.067623,0xFF,,
6.067718,0x5A,,
6.067814,0xFD,,
6.074027,0x04,,
6.074123,0xA1,,
6.074218,0x5A,,
6.074314,0xFF,,
6.081728,0x04,,
6.081823,0xA2,,
6.081919,0x59,,
6.082015,0xFF,,
6.082734,0x06,,
6.082829,0xA2,,
6.082925,0xFE,,
6.08302,0xFF,,
6.083116,0x5A,,
6.083211,0xFD,,
6.089429,0x04,,
6.089524,0xA1,,
6.08962,0x5A,,
6.089716,0xFF,,
6.09713,0x04,,
6.097225,0xA2,,
6.097321,0x59,,
6.097416,0xFF,,
6.098139,0x06,,
6.098234,0xA2,,
6.09833,0xFE,,
6.098425,0xFF,,
6.098521,0x5A,,
6.098616,0xFD,,
6.10483,0x04,,
6.104926,0xA1,,
6.105022,0x5A,,
6.105117,0xFF,,
6.112531,0x04,,
6.112627,0xA2,,
6.112722,0x59,,
6.112818,0xFF,,
6.113538,0x06,,
6.113633,0xA2,,
6.113729,0xFE,,
6.113824,0xFF,,
6.11392,0x5A,,
6.114015,0xFD,,
6.120232,0x04,,
6.120328,0xA1,,
6.120423,0x5A,,
6.120519,0xFF,,
6.127932,0x04,,
6.128028,0xA2,,
6.128123,0x59,,
6.128219,0xFF,,
6.128939,0x06,,
6.129035,0xA2,,
6.12913,0xFE,,
6.129226,0xFF,,
6.129321,0x5A,,
6.129417,0xFD,,
6.135633,0x04,,
6.135728,0xA1,,
6.135824,0x5A,,
6.13592,0xFF,,
6.143334,0x04,,
6.143429,0xA2,,
6.143525,0x59,,
6.14362,0xFF,,
6.144338,0x06,,
6.144434,0xA2,,
6.144529,0xFE,,
6.144625,0xFF,,
6.14472,0x5A,,
6.144816,0xFD,,
6.151035,0x04,,
6.15113,0xA1,,
6.151226,0x5A,,
6.151321,0xFF,,
6.158735,0x04,,
6.158831,0xA2,,
6.158927,0x59,,
6.159022,0xFF,,
6.159743,0x06,,
6.159839,0xA2,,
6.159934,0xFE,,
6.16003,0xFF,,
6.160125,0x5A,,
6.160221,0xFD,,
6.166436,0x04,,
6.166532,0xA1,,
6.166627,0x5A,,
6.166723,0xFF,,
6.174137,0x04,,
6.174233,0xA2,,
6.174328,0x59,,
6.174424,0xFF,,
6.175149,0x06,,
6.175244,0xA2,,
6.17534,0xFE,,
6.175435,0xFF,,
6.175531,0x5A,,
6.175626,0xFD,,
6.181838,0x04,,
6.181934,0xA1,,
6.182029,0x5A,,
6.182125,0xFF,,
6.189539,0x04,,
6.189634,0xA2,,
6.18973,0x59,,
6.189826,0xFF,,
6.190547,0x06,,
6.190643,0xA2,,
6.190738,0xFE,,
6.190834,0xFF,,
6.190929,0x5A,,
6.191025,0xFD,,
6.19724,0x04,,
6.197335,0xA1,,
6.197431,0x5A,,
6.197526,0xFF,,
6.204941,0x04,,
6.205036,0xA2,,
6.205132,0x59,,
6.205227,0xFF,,
6.205946,0x06,,
6.206042,0xA2,,
6.206137,0xFE,,
6.206233,0xFF,,
6.206328,0x5A,,
6.206424,0xFD,,
6.212641,0x04,,
6.212737,0xA1,,
6.212833,0x5A,,
6.212928,0xFF,,
6.220342,0x04,,
6.220438,0xA2,,
6.220533,0x59,,
6.220629,0xFF,,
6.221351,0x06,,
6.221447,0xA2,,
6.221542,0xFE,,
6.221638,0xFF,,
6.221733,0x5A,,
6.221829,0xFD,,
6.228043,0x04,,
6.228139,0xA1,,
6.228234,0x5A,,
6.22833,0xFF,,
6.235744,0x04,,
6.23584,0xA2,,
6.235935,0x59,,
6.236031,0xFF,,
6.23675,0x06,,
6.236846,0xA2,,
6.236941,0xFE,,
6.237037,0xFF,,
6.237132,0x5A,,
6.237228,0xFD,,
6.243445,0x04,,
6.24354,0xA1,,
6.243636,0x5A,,
6.243732,0xFF,,
6.251146,0x04,,
6.251241,0xA2,,
6.251337,0x59,,
6.251432,0xFF,,
6.252152,0x06,,
6.252247,0xA2,,
6.252343,0xFE,,
6.252438,0xFF,,
6.252534,0x5A,,
6.252629,0xFD,,
6.258847,0x04,,
6.258942,0xA1,,
6.259038,0x5A,,
6.259133,0xFF,,
6.266547,0x04,,
6.266643,0xA2,,
6.266739,0x59,,
6.266834,0xFF,,
6.267557,0x06,,
6.267652,0xA2,,
6.267748,0xFE,,
6.267843,0xFF,,
6.267939,0x5A,,
6.268034,0xFD,,
6.274248,0x04,,
6.274344,0xA1,,
6.274439,0x5A,,
6.274535,0xFF,,
6.281949,0x04,,
6.282045,0xA2,,
6.28214,0x59,,
6.282236,0xFF,,
6.282956,0x06,,
6.283051,0xA2,,
6.283147,0xFE,,
6.283242,0xFF,,
6.283338,0x5A,,
6.283433,0xFD,,
6.289649,0x04,,
6.289745,0xA1,,
6.28984,0x5A,,
6.289936,0xFF,,
6.29735,0x04,,
6.297445,0xA2,,
6.297541,0x59,,
6.297637,0xFF,,
6.298355,0x06,,
6.298451,0xA2,,
6.298546,0xFE,,
6.298642,0xFF,,
6.298737,0x5A,,
6.298833,0xFD,,
6.305051,0x04,,
6.305146,0xA1,,
6.305242,0x5A,,
6.305337,0xFF,,
6.312752,0x04,,
6.312847,0xA2,,
6.312943,0x59,,
6.313038,0xFF,,
6.313763,0x06,,
6.313858,0xA2,,
6.313954,0xFE,,
6.314049,0xFF,,
6.314145,0x5A,,
6.31424,0xFD,,
6.320452,0x04,,
6.320548,0xA1,,
6.320644,0x5A,,
6.320739,0xFF,,
6.328153,0x04,,
6.328249,0xA2,,
6.328344,0x59,,
6.32844,0xFF,,
6.32916,0x06,,
6.329256,0xA2,,
6.329351,0xFE,,
6.329447,0xFF,,
6.329542,0x5A,,
6.329638,0xFD,,
6.335854,0x04,,
6.33595,0xA1,,
6.336045,0x5A,,
6.336141,0xFF,,
6.343555,0x04,,
6.343651,0xA2,,
6.343746,0x59,,
6.343842,0xFF,,
6.344565,0x06,,
6.344661,0xA2,,
6.344756,0xFE,,
6.344852,0xFF,,
6.344947,0x5A,,
6.345043,0xFD,,
6.351256,0x04,,
6.351351,0xA1,,
6.351447,0x5A,,
6.351543,0xFF,,
6.358957,0x04,,
6.359052,0xA2,,
6.359148,0x59,,
6.359243,0xFF,,
6.359964,0x06,,
6.36006,0xA2,,
6.360155,0xFE,,
6.360251,0xFF,,
6.360346,0x5A,,
6.360442,0xFD,,
6.366658,0x04,,
6.366753,0xA1,,
6.366849,0x5A,,
6.366944,0xFF,,
6.374358,0x04,,
6.374454,0xA2,,
6.37455,0x59,,
6.374645,0xFF,,
6.37537,0x06,,
6.375466,0xA2,,
6.375561,0xFE,,
6.375657,0xFF,,
6.375752,0x5A,,
6.375848,0xFD,,
6.382059,0x04,,
6.382155,0xA1,,
6.38225,0x5A,,
6.382346,0xFF,,
6.38976,0x04,,
6.389856,0xA2,,
6.389951,0x59,,
6.390047,0xFF,,
6.390768,0x06,,
6.390863,0xA2,,
6.390959,0xFE,,
6.391054,0xFF,,
6.39115,0x5A,,
6.391245,0xFD,,
6.397461,0x04,,
6.397557,0xA1,,
6.397652,0x5A,,
6.397748,0xFF,,
6.405162,0x04,,
6.405257,0xA2,,
6.405353,0x59,,
6.405449,0xFF,,
6.406167,0x06,,
6.406262,0xA2,,
6.406358,0xFE,,
6.406453,0xFF,,
6.406549,0x5A,,
6.406644,0xFD,,
6.412863,0x04,,
6.412958,0xA1,,
6.413054,0x5A,,
6.413149,0xFF,,
6.421859,0xFF,,
6.421954,0x5A,,
6.736583,0xFF,,
6.743997,0x04,,
6.744092,0xA2,,
6.744188,0x59,,
6.744283,0xFF,,
6.745005,0x06,,
6.745101,0xA2,,
6.745196,0xFE,,
6.745292,0xFF,,
6.745387,0x5A,,
6.745483,0xFD,,
6.751697,0x04,,
6.751793,0xA1,,
6.751889,0x5A,,
6.751984,0xFF,,
6.759398,0x04,,
6.759494,0xA2,,
6.759589,0x59,,
6.759685,0xFF,,
6.760411,0x06,,
6.760507,0xA2,,
6.760602,0xFE,,
6.760698,0xFF,,
6.760793,0x5A,,
6.760889,0xFD,,
6.767099,0x04,,
6.767195,0xA1,,
6.76729,0x5A,,
6.767386,0xFF,,
6.821004,0x04,,
6.8211,0xA2,,
6.821195,0x59,,
6.821291,0xFF,,
6.822015,0x06,,
6.82211,0xA2,,
6.822206,0xFE,,
6.822301,0xFF,,
6.822397,0x5A,,
6.822492,0xFD,,
6.828704,0x04,,
6.8288,0xA1,,
6.828895,0x5A,,
6.828991,0xFF,,
6.836405,0x04,,
6.8365,0xA2,,
6.836596,0x59,,
6.836692,0xFF,,
6.837414,0x06,,
6.837509,0xA2,,
6.837605,0xFE,,
6.8377,0xFF,,
6.837796,0x5A,,
6.837891,0xFD,,
6.844106,0x04,,
6.844201,0xA1,,
6.844297,0x5A,,
6.844392,0xFF,,
6.851807,0x04,,
6.851902,0xA2,,
6.851998,0x59,,
6.852093,0xFF,,
6.852813,0x06,,
6.852908,0xA2,,
6.853004,0xFE,,
6.853099,0xFF,,
6.853195,0x5A,,
6.85329,0xFD,,
6.859507,0x04,,
6.859603,0xA1,,
6.859699,0x5A,,
6.859794,0xFF,,
6.867208,0x04,,
6.867304,0xA2,,
6.867399,0x59,,
6.867495,0xFF,,
6.868218,0x06,,
6.868313,0xA2,,
6.868409,0xFE,,
6.868504,0xFF,,
6.8686,0x5A,,
6.868695,0xFD,,
6.874909,0x04,,
6.875005,0xA1,,
6.8751,0x5A,,
6.875196,0xFF,,
6.88261,0x04,,
6.882706,0xA2,,
6.882801,0x59,,
6.882897,0xFF,,
6.883622,0x06,,
6.883718,0xA2,,
6.883813,0xFE,,
6.883909,0xFF,,
6.884004,0x5A,,
6.8841,0xFD,,
6.890311,0x04,,
6.890406,0xA1,,
6.890502,0x5A,,
6.890598,0xFF,,
6.898012,0x04,,
6.898107,0xA2,,
6.898203,0x59,,
6.898298,0xFF,,
6.899021,0x06,,
6.899117,0xA2,,
6.899212,0xFE,,
6.899308,0xFF,,
6.899403,0x5A,,
6.899499,0xFD,,
6.905713,0x04,,
6.905808,0xA1,,
6.905904,0x5A,,
6.905999,0xFF,,
6.913413,0x04,,
6.913509,0xA2,,
6.913605,0x59,,
6.9137,0xFF,,
6.91442,0x06,,
6.914516,0xA2,,
6.914611,0xFE,,
6.914707,0xFF,,
6.914802,0x5A,,
6.914898,0xFD,,
6.921114,0x04,,
6.92121,0xA1,,
6.921305,0x5A,,
6.921401,0xFF,,
6.928814,0x04,,
6.92891,0xA2,,
6.929005,0x59,,
6.929101,0xFF,,
6.929826,0x06,,
6.929921,0xA2,,
6.930017,0xFE,,
6.930112,0xFF,,
6.930208,0x5A,,
6.930303,0xFD,,
6.936515,0x04,,
6.936611,0xA1,,
6.936706,0x5A,,
6.936802,0xFF,,
6.944216,0x04,,
6.944311,0xA2,,
6.944407,0x59,,
6.944503,0xFF,,
6.945224,0x06,,
6.94532,0xA2,,
6.945415,0xFE,,
6.945511,0xFF,,
6.945606,0x5A,,
6.945702,0xFD,,
6.951918,0x04,,
6.952013,0xA1,,
6.952109,0x5A,,
6.952204,0xFF,,
6.959619,0x04,,
6.959714,0xA2,,
6.95981,0x59,,
6.959905,0xFF,,
6.960623,0x06,,
6.960719,0xA2,,
6.960814,0xFE,,
6.96091,0xFF,,
6.961005,0x5A,,
6.961101,0xFD,,
6.967318,0x04,,
6.967414,0x83,,
6.96751,0x78,,
6.967605,0xFF,,
6.975019,0x04,,
6.975115,0xA1,,
6.97521,0x5A,,
6.975306,0xFF,,
6.98272,0x04,,
6.982816,0xA2,,
6.982911,0x59,,
6.983007,0xFF,,
6.983726,0x06,,
6.983821,0xA2,,
6.983917,0xFF,,
6.984013,0xFF,,
6.984108,0x59,,
6.984204,0xFD,,
6.990421,0x04,,
6.990517,0xA1,,
6.990612,0x5A,,
6.990708,0xFF,,
6.998122,0x04,,
6.998217,0xA2,,
6.998313,0x59,,
6.998409,0xFF,,
6.999131,0x06,,
6.999227,0xA2,,
6.999322,0xFF,,
6.999418,0xFF,,
6.999513,0x59,,
6.999609,0xFD,,
7.005823,0x04,,
7.005918,0xA1,,
7.006014,0x5A,,
7.006109,0xFF,,
7.013524,0x04,,
7.013619,0xA2,,
7.013715,0x59,,
7.01381,0xFF,,
7.014539,0x06,,
7.014634,0xA2,,
7.01473,0xFF,,
7.014825,0xFF,,
7.014921,0x59,,
7.015016,0xFD,,
7.021224,0x04,,
7.02132,0xA1,,
7.021416,0x5A,,
7.021511,0xFF,,
7.028925,0x04,,
7.029021,0xA2,,
7.029116,0x59,,
7.029212,0xFF,,
7.02993,0x06,,
7.030026,0xA2,,
7.030121,0xFF,,
7.030217,0xFF,,
7.030312,0x59,,
7.030408,0xFD,,
7.036626,0x04,,
7.036722,0xA1,,
7.036817,0x5A,,
7.036913,0xFF,,
7.044327,0x04,,
7.044423,0xA2,,
7.044518,0x59,,
7.044614,0xFF,,
7.045335,0x06,,
7.045431,0xA2,,
7.045526,0xFF,,
7.045622,0xFF,,
7.045717,0x59,,
7.045813,0xFD,,
7.052028,0x04,,
7.052123,0xA1,,
7.052219,0x5A,,
7.052315,0xFF,,
7.059729,0x04,,
7.059824,0xA2,,
7.05992,0x59,,
7.060015,0xFF,,
7.060734,0x06,,
7.06083,0xA2,,
7.060925,0xFF,,
7.061021,0xFF,,
7.061116,0x59,,
7.061212,0xFD,,
7.06743,0x04,,
7.067525,0xA1,,
7.067621,0x5A,,
7.067716,0xFF,,
7.07513,0x04,,
7.075226,0xA2,,
7.075322,0x59,,
7.075417,0xFF,,
7.076142,0x06,,
7.076237,0xA2,,
7.076333,0xFF,,
7.076428,0xFF,,
7.076524,0x59,,
7.076619,0xFD,,
7.082831,0x04,,
7.082927,0xA1,,
7.083022,0x5A,,
7.083118,0xFF,,
7.090532,0x04,,
7.090628,0xA2,,
7.090723,0x59,,
7.090819,0xFF,,
7.091539,0x06,,
7.091635,0xA2,,
7.09173,0xFF,,
7.091826,0xFF,,
7.091921,0x59,,
7.092017,0xFD,,
7.098233,0x04,,
7.098329,0xA1,,
7.098424,0x5A,,
7.09852,0xFF,,
7.105934,0x04,,
7.106029,0xA2,,
7.106125,0x59,,
7.106221,0xFF,,
7.106938,0x06,,
7.107034,0xA2,,
7.107129,0xFF,,
7.107225,0xFF,,
7.107321,0x59,,
7.107416,0xFD,,
7.113635,0x04,,
7.11373,0xA1,,
7.113826,0x5A,,
7.113921,0xFF,,
7.121336,0x04,,
7.121431,0xA2,,
7.121527,0x59,,
7.121622,0xFF,,
7.122344,0x06,,
7.122439,0xA2,,
7.122535,0xFF,,
7.12263,0xFF,,
7.122726,0x59,,
7.122821,0xFD,,
7.129035,0x04,,
7.129131,0xFD,,
7.1293,0xFF,,
7.136736,0x04,,
7.136832,0xA2,,
7.136927,0x59,,
7.137023,0xFF,,
7.13775,0x06,,
7.137845,0xA2,,
7.137941,0xFF,,
7.138036,0xFF,,
7.138132,0x59,,
7.138227,0xFD,,
7.144437,0x04,,
7.144533,0xA1,,
7.144628,0x5A,,
7.144724,0xFF,,
7.152138,0x04,,
7.152234,0xA2,,
7.152329,0x59,,
7.152425,0xFF,,
7.153147,0x06,,
7.153243,0xA2,,
7.153338,0xFF,,
7.153434,0xFF,,
7.153529,0x59,,
7.153625,0xFD,,
7.159839,0x04,,
7.159934,0xA1,,
7.16003,0x5A,,
7.160126,0xFF,,
7.16754,0x04,,
7.167635,0xA2,,
7.167731,0x59,,
7.167826,0xFF,,
7.168546,0x06,,
7.168642,0xA2,,
7.168737,0xFF,,
7.168833,0xFF,,
7.168928,0x59,,
7.169024,0xFD,,
7.175241,0x04,,
7.175336,0xA1,,
7.175432,0x5A,,
7.175527,0xFF,,
7.182941,0x04,,
7.183037,0xA2,,
7.183133,0x59,,
7.183228,0xFF,,
7.183951,0x06,,
7.184047,0xA2,,
7.184142,0xFF,,
7.184238,0xFF,,
7.184333,0x59,,
7.184429,0xFD,,
7.190642,0x04,,
7.190738,0xA1,,
7.190833,0x5A,,
7.190929,0xFF,,
7.198343,0x04,,
7.198439,0xA2,,
7.198534,0x59,,
7.19863,0xFF,,
7.199351,0x06,,
7.199447,0xA2,,
7.199542,0xFF,,
7.199638,0xFF,,
7.199733,0x59,,
7.199829,0xFD,,
7.206044,0x04,,
7.20614,0xA1,,
7.206235,0x5A,,
7.206331,0xFF,,
7.213745,0x04,,
7.21384,0xA2,,
7.213936,0x59,,
7.214032,0xFF,,
7.214756,0x06,,
7.214852,0xA2,,
7.214947,0xFF,,
7.215043,0xFF,,
7.215138,0x59,,
7.215234,0xFD,,
7.221446,0x04,,
7.221541,0xA1,,
7.221637,0x5A,,
7.221732,0xFF,,
7.229147,0x04,,
7.229242,0xA2,,
7.229338,0x59,,
7.229433,0xFF,,
7.230154,0x06,,
7.230249,0xA2,,
7.230345,0xFF,,
7.23044,0xFF,,
7.230536,0x59,,
7.230632,0xFD,,
7.236846,0x04,,
7.236942,0xA1,,
7.237038,0x5A,,
7.237133,0xFF,,
7.244547,0x04,,
7.244643,0xA2,,
7.244738,0x59,,
7.244834,0xFF,,
7.245553,0x06,,
7.245649,0xA2,,
7.245744,0xFF,,
7.24584,0xFF,,
7.245935,0x59,,
7.246031,0xFD,,
7.252248,0x04,,
7.252344,0xA1,,
7.252439,0x5A,,
7.252535,0xFF,,
7.259949,0x04,,
7.260045,0xA2,,
7.26014,0x59,,
7.260236,0xFF,,
7.260958,0x06,,
7.261054,0xA2,,
7.261149,0xFF,,
7.261245,0xFF,,
7.26134,0x59,,
7.261436,0xFD,,
7.267649,0x04,,
7.267744,0xA1,,
7.26784,0x5A,,
7.267936,0xFF,,
7.275351,0x04,,
7.275446,0xA2,,
7.275542,0x59,,
7.275637,0xFF,,
7.276358,0x06,,
7.276454,0xA2,,
7.276549,0xFF,,
7.276645,0xFF,,
7.27674,0x59,,
7.276836,0xFD,,
7.283051,0x04,,
7.283146,0xA1,,
7.283242,0x5A,,
7.283337,0xFF,,
7.290751,0x04,,
7.290847,0xA2,,
7.290943,0x59,,
7.291038,0xFF,,
7.291757,0x06,,
7.291853,0xA2,,
7.291948,0xFF,,
7.292044,0xFF,,
7.292139,0x59,,
7.292235,0xFD,,
7.298452,0x04,,
7.298548,0xA1,,
7.298643,0x5A,,
7.298739,0xFF,,
7.306153,0x04,,
7.306249,0xA2,,
7.306344,0x59,,
7.30644,0xFF,,
7.307162,0x06,,
7.307258,0xA2,,
7.307353,0xFF,,
7.307449,0xFF,,
7.307544,0x59,,
7.30764,0xFD,,
7.313854,0x04,,
7.31395,0xA1,,
7.314045,0x5A,,
7.314141,0xFF,,
7.321555,0x04,,
7.32165,0xA2,,
7.321746,0x59,,
7.321842,0xFF,,
7.32256,0x06,,
7.322655,0xA2,,
7.322751,0xFF,,
7.322846,0xFF,,
7.322942,0x59,,
7.323037,0xFD,,
7.329256,0x04,,
7.329351,0xA1,,
7.329447,0x5A,,
7.329542,0xFF,,
7.336957,0x04,,
7.337052,0xA2,,
7.337148,0x59,,
7.337243,0xFF,,
7.337961,0x06,,
7.338057,0xA2,,
7.338152,0xFF,,
7.338248,0xFF,,
7.338343,0x59,,
7.338439,0xFD,,
7.344657,0x04,,
7.344753,0xA1,,
7.344849,0x5A,,
7.344944,0xFF,,
7.352358,0x04,,
7.352454,0xA2,,
7.352549,0x59,,
7.352645,0xFF,,
7.353366,0x06,,
7.353462,0xA2,,
7.353557,0xFF,,
7.353653,0xFF,,
7.353748,0x59,,
7.353844,0xFD,,
7.360059,0x04,,
7.360155,0xA1,,
7.36025,0x5A,,
7.360346,0xFF,,
7.36776,0x04,,
7.367856,0xA2,,
7.367951,0x59,,
7.368047,0xFF,,
7.368766,0x06,,
7.368861,0xA2,,
7.368957,0xFF,,
7.369052,0xFF,,
7.369148,0x59,,
7.369243,0xFD,,
7.375461,0x04,,
7.375556,0xA1,,
7.375652,0x5A,,
7.375748,0xFF,,
7.383162,0x04,,
7.383257,0xA1,,
7.383353,0x5A,,
7.383448,0xFF,,
7.390863,0x04,,
7.390958,0xA2,,
7.391054,0x59,,
7.391149,0xFF,,
7.391877,0x06,,
7.391972,0xA2,,
7.392068,0xFF,,
7.392163,0xFF,,
7.392259,0x59,,
7.392354,0xFD,,
7.398563,0x04,,
7.398659,0xA1,,
7.398755,0x5A,,
7.39885,0xFF,,
7.406264,0x04,,
7.40636,0xA2,,
7.406455,0x59,,
7.406551,0xFF,,
7.407276,0x06,,
7.407371,0xA2,,
7.407467,0xFF,,
7.407562,0xFF,,
7.407658,0x59,,
7.407753,0xFD,,
7.413965,0x04,,
7.414061,0xA1,,
7.414156,0x5A,,
7.414252,0xFF,,
7.421666,0x04,,
7.421762,0xA2,,
7.421857,0x59,,
7.421953,0xFF,,
7.422673,0x06,,
7.422769,0xA2,,
7.422864,0xFF,,
7.42296,0xFF,,
7.423056,0x59,,
7.423151,0xFD,,
7.429367,0x04,,
7.429462,0xA1,,
7.429558,0x5A,,
7.429654,0xFF,,
7.437068,0x04,,
7.437163,0xA2,,
7.437259,0x59,,
7.437354,0xFF,,
7.438073,0x06,,
7.438168,0xA2,,
7.438264,0xFF,,
7.438359,0xFF,,
7.438455,0x59,,
7.43855,0xFD,,
7.444769,0x04,,
7.444864,0xA1,,
7.44496,0x5A,,
7.445055,0xFF,,
7.452469,0x04,,
7.452565,0xA2,,
7.452661,0x59,,
7.452756,0xFF,,
7.453479,0x06,,
7.453574,0xA2,,
7.45367,0xFF,,
7.453765,0xFF,,
7.453861,0x59,,
7.453956,0xFD,,
7.460169,0x04,,
7.460265,0xA1,,
7.46036,0x5A,,
7.460456,0xFF,,
7.46787,0x04,,
7.467966,0xA2,,
7.468061,0x59,,
7.468157,0xFF,,
7.468878,0x06,,
7.468973,0xA2,,
7.469069,0xFF,,
7.469164,0xFF,,
7.46926,0x59,,
7.469355,0xFD,,
7.475571,0x04,,
7.475667,0x83,,
7.475762,0x78,,
7.475858,0xFF,,
7.483272,0x04,,
7.483367,0xA1,,
7.483463,0x5A,,
7.483559,0xFF,,
7.490973,0x04,,
7.491068,0xA2,,
7.491164,0x59,,
7.491259,0xFF,,
7.491981,0x06,,
7.492076,0xA2,,
7.492172,0xFF,,
7.492267,0xFF,,
7.492363,0x59,,
7.492458,0xFD,,
7.498674,0x04,,
7.498769,0xA1,,
7.498865,0x5A,,
7.49896,0xFF,,
7.506374,0x04,,
7.50647,0xA2,,
7.506566,0x59,,
7.506661,0xFF,,
7.50738,0x06,,
7.507475,0xA2,,
7.507571,0xFF,,
7.507666,0xFF,,
7.507762,0x59,,
7.507857,0xFD,,
7.514075,0x04,,
7.514171,0xA1,,
7.514266,0x5A,,
7.514362,0xFF,,
7.521776,0x04,,
7.521872,0xA2,,
7.521967,0x59,,
7.522063,0xFF,,
7.522792,0x06,,
7.522887,0xA2,,
7.522983,0xFF,,
7.523078,0xFF,,
7.523174,0x59,,
7.523269,0xFD,,
7.529477,0x04,,
7.529573,0xA1,,
7.529668,0x5A,,
7.529764,0xFF,,
7.537178,0x04,,
7.537273,0xA2,,
7.537369,0x59,,
7.537465,0xFF,,
7.538185,0x06,,
7.53828,0xA2,,
7.538376,0xFF,,
7.538471,0xFF,,
7.538567,0x59,,
7.538662,0xFD,,
7.544879,0x04,,
7.544974,0xA1,,
7.54507,0x5A,,
7.545165,0xFF,,
7.55258,0x04,,
7.552675,0xA2,,
7.552771,0x59,,
7.552866,0xFF,,
7.55359,0x06,,
7.553685,0xA2,,
7.553781,0xFF,,
7.553876,0xFF,,
7.553972,0x59,,
7.554067,0xFD,,
7.56028,0x04,,
7.560376,0xA1,,
7.560472,0x5A,,
7.560567,0xFF,,
7.567981,0x04,,
7.568077,0xA2,,
7.568172,0x59,,
7.568268,0xFF,,
7.568987,0x06,,
7.569083,0xA2,,
7.569178,0xFF,,
7.569274,0xFF,,
7.569369,0x59,,
7.569465,0xFD,,
7.575682,0x04,,
7.575778,0xA1,,
7.575873,0x5A,,
7.575969,0xFF,,
7.583383,0x04,,
7.583479,0xA2,,
7.583574,0x59,,
7.58367,0xFF,,
7.584395,0x06,,
7.58449,0xA2,,
7.584586,0xFF,,
7.584681,0xFF,,
7.584777,0x59,,
7.584872,0xFD,,
7.591083,0x04,,
7.591178,0xA1,,
7.591274,0x5A,,
7.59137,0xFF,,
7.598785,0x04,,
7.59888,0xA2,,
7.598976,0x59,,
7.599071,0xFF,,
7.599794,0x06,,
7.599889,0xA2,,
7.599985,0xFF,,
7.60008,0xFF,,
7.600176,0x59,,
7.600271,0xFD,,
7.606485,0x04,,
7.60658,0xA1,,
7.606676,0x5A,,
7.606771,0xFF,,
7.614184,0x04,,
7.61428,0xA2,,
7.614376,0x59,,
7.614471,0xFF,,
7.615193,0x06,,
7.615289,0xA2,,
7.615384,0xFF,,
7.61548,0xFF,,
7.615575,0x59,,
7.615671,0xFD,,
7.621886,0x04,,
7.621982,0xA1,,
7.622077,0x5A,,
7.622173,0xFF,,
7.629587,0x04,,
7.629683,0xA2,,
7.629778,0x59,,
7.629874,0xFF,,
7.630598,0x06,,
7.630694,0xA2,,
7.630789,0xFF,,
7.630885,0xFF,,
7.63098,0x59,,
7.631076,0xFD,,
7.637288,0x04,,
7.637384,0xA1,,
7.637479,0x5A,,
7.637575,0xFF,,
7.644988,0x04,,
7.645083,0xA2,,
7.645179,0x59,,
7.645275,0xFF,,
7.646003,0x06,,
7.646098,0xA2,,
7.646194,0xFF,,
7.646289,0xFF,,
7.646385,0x59,,
7.64648,0xFD,,
7.652689,0x04,,
7.652784,0xA1,,
7.65288,0x5A,,
7.652975,0xFF,,
7.660391,0x04,,
7.660486,0xA2,,
7.660582,0x59,,
7.660677,0xFF,,
7.661396,0x06,,
7.661491,0xA2,,
7.661587,0xFF,,
7.661682,0xFF,,
7.661778,0x59,,
