Time [s],Value,Parity Error,Framing Error
1.028028,0x04,,
1.028124,0xF0,,
1.028219,0x0B,,
1.028315,0xFF,,
1.035729,0x04,,
1.035825,0xF0,,
1.03592,0x0B,,
1.036016,0xFF,,
1.046688,0x04,,
1.046784,0xF0,,
1.046879,0x0B,,
1.046975,0xFF,,
1.054389,0x04,,
1.054485,0xF0,,
1.05458,0x0B,,
1.054676,0xFF,,
1.06209,0x04,,
1.062186,0xF0,,
1.062281,0x0B,,
1.062377,0xFF,,
1.069791,0x04,,
1.069886,0xF0,,
1.069982,0x0B,,
1.070078,0xFF,,
1.077492,0x04,,
1.077587,0xF0,,
1.077683,0x0B,,
1.077778,0xFF,,
1.085193,0x04,,
1.085288,0xF0,,
1.085384,0x0B,,
1.085479,0xFF,,
1.092893,0x04,,
1.092989,0xF0,,
1.093085,0x0B,,
1.09318,0xFF,,
1.100594,0x04,,
1.10069,0xF0,,
1.100785,0x0B,,
1.100881,0xFF,,
1.608847,0x04,,
1.608942,0x81,,
1.609038,0x7A,,
1.609133,0xFF,,
1.609844,0x04,,
1.60994,0x81,,
1.610035,0x7A,,
1.610131,0xFF,,
1.616547,0x04,,
1.616643,0x91,,
1.616739,0x6A,,
1.616834,0xFF,,
1.617556,0x06,,
1.617651,0x91,,
1.617747,0x03,,
1.617842,0x02,,
1.617938,0x63,,
1.618033,0xFF,,
1.624248,0x04,,
1.624344,0x82,,
1.624439,0x79,,
1.624535,0xFF,,
1.625241,0x04,,
1.625336,0x82,,
1.625431,0x79,,
1.625526,0xFF,,
1.631949,0x04,,
1.632045,0x92,,
1.63214,0x69,,
1.632236,0xFF,,
1.63295,0x06,,
1.633045,0x92,,
1.63314,0x02,,
1.633235,0x02,,
1.63333,0x63,,
1.633425,0xFF,,
1.639649,0x04,,
1.639745,0x83,,
1.63984,0x78,,
1.639936,0xFF,,
1.64735,0x04,,
1.647445,0xA1,,
1.647541,0x5A,,
1.647637,0xFF,,
1.648356,0x06,,
1.648452,0xA1,,
1.648547,0xFF,,
1.648643,0xFF,,
1.648738,0x5A,,
1.648834,0xFD,,
1.655051,0x04,,
1.655146,0xA2,,
1.655242,0x59,,
1.655337,0xFF,,
1.65605,0x06,,
1.656145,0xA2,,
1.656239,0x00,,
1.656334,0x00,,
1.656429,0x57,,
1.656524,0xFF,,
1.662752,0x04,,
1.662847,0xA1,,
1.662943,0x5A,,
1.663038,0xFF,,
1.663761,0x06,,
1.663857,0xA1,,
1.663952,0xFF,,
1.664048,0xFF,,
1.664143,0x5A,,
1.664239,0xFD,,
1.670452,0x04,,
1.670548,0xA2,,
1.670644,0x59,,
1.670739,0xFF,,
1.671453,0x06,,
1.671548,0xA2,,
1.671643,0x00,,
1.671738,0x00,,
1.671833,0x57,,
1.671927,0xFF,,
1.678153,0x04,,
1.678249,0xA1,,
1.678344,0x5A,,
1.67844,0xFF,,
1.679161,0x06,,
1.679257,0xA1,,
1.679352,0xFF,,
1.679448,0xFF,,
1.679543,0x5A,,
1.679639,0xFD,,
1.685854,0x04,,
1.68595,0xA2,,
1.686045,0x59,,
1.686141,0xFF,,
1.686865,0x06,,
1.68696,0xA2,,
1.687055,0x00,,
1.68715,0x00,,
1.687245,0x57,,
1.687339,0xFF,,
1.693555,0x04,,
1.693651,0xA1,,
1.693746,0x5A,,
1.693842,0xFF,,
1.694566,0x06,,
1.694662,0xA1,,
1.694758,0xFF,,
1.694853,0xFF,,
1.694949,0x5A,,
1.695044,0xFD,,
1.701256,0x04,,
1.701351,0xA2,,
1.701447,0x59,,
1.701543,0xFF,,
1.702255,0x06,,
1.70235,0xA2,,
1.702445,0x00,,
1.70254,0x00,,
1.702634,0x57,,
1.702729,0xFF,,
1.708957,0x04,,
1.709052,0xA1,,
1.709148,0x5A,,
1.709243,0xFF,,
1.709964,0x06,,
1.71006,0xA1,,
1.710155,0xFF,,
1.710251,0xFF,,
1.710346,0x5A,,
1.710442,0xFD,,
1.716658,0x04,,
1.716753,0xA2,,
1.716849,0x59,,
1.716944,0xFF,,
1.717657,0x06,,
1.717751,0xA2,,
1.717846,0x00,,
1.717941,0x00,,
1.718036,0x57,,
1.718131,0xFF,,
1.724358,0x04,,
1.724454,0xA1,,
1.72455,0x5A,,
1.724645,0xFF,,
1.725363,0x06,,
1.725459,0xA1,,
1.725554,0xFF,,
1.72565,0xFF,,
1.725745,0x5A,,
1.725841,0xFD,,
1.732059,0x04,,
1.732155,0xA2,,
1.73225,0x59,,
1.732346,0xFF,,
1.73306,0x06,,
1.733155,0xA2,,
1.73325,0x00,,
1.733344,0x00,,
1.733439,0x57,,
1.733534,0xFF,,
1.73976,0x04,,
1.739856,0xA1,,
1.739951,0x5A,,
1.740047,0xFF,,
1.740765,0x06,,
1.74086,0xA1,,
1.740956,0xFF,,
1.741051,0xFF,,
1.741147,0x5A,,
1.741242,0xFD,,
1.747461,0x04,,
1.747557,0xA2,,
1.747652,0x59,,
1.747748,0xFF,,
1.748464,0x06,,
1.748559,0xA2,,
1.748654,0x00,,
1.748749,0x00,,
1.748844,0x57,,
1.748938,0xFF,,
1.755162,0x04,,
1.755257,0xA1,,
1.755353,0x5A,,
1.755449,0xFF,,
1.75617,0x06,,
1.756265,0xA1,,
1.756361,0xFF,,
1.756456,0xFF,,
1.756552,0x5A,,
1.756647,0xFD,,
1.762863,0x04,,
1.762958,0xA2,,
1.763054,0x59,,
1.763149,0xFF,,
1.763866,0x06,,
1.763961,0xA2,,
1.764056,0x00,,
1.76415,0x00,,
1.764245,0x57,,
1.76434,0xFF,,
1.770564,0x04,,
1.770659,0xA1,,
1.770755,0x5A,,
1.77085,0xFF,,
1.771575,0x06,,
1.77167,0xA1,,
1.771766,0xFF,,
1.771861,0xFF,,
1.771957,0x5A,,
1.772052,0xFD,,
1.778264,0x04,,
1.77836,0xA2,,
1.778456,0x59,,
1.778551,0xFF,,
1.779271,0x06,,
1.779366,0xA2,,
1.77946,0x00,,
1.779555,0x00,,
1.77965,0x57,,
1.779745,0xFF,,
1.785965,0x04,,
1.786061,0xA1,,
1.786156,0x5A,,
1.786252,0xFF,,
1.786972,0x06,,
1.787068,0xA1,,
1.787163,0xFF,,
1.787259,0xFF,,
1.787354,0x5A,,
1.78745,0xFD,,
1.793666,0x04,,
1.793762,0xA2,,
1.793857,0x59,,
1.793953,0xFF,,
1.794667,0x06,,
1.794762,0xA2,,
1.794856,0x00,,
1.794951,0x00,,
1.795046,0x57,,
1.795141,0xFF,,
1.801367,0x04,,
1.801463,0xA1,,
1.801558,0x5A,,
1.801654,0xFF,,
1.802372,0x06,,
1.802468,0xA1,,
1.802563,0xFF,,
1.802659,0xFF,,
1.802754,0x5A,,
1.80285,0xFD,,
1.809067,0x04,,
1.809162,0xA2,,
1.809258,0x59,,
1.809354,0xFF,,
1.810077,0x06,,
1.810172,0xA2,,
1.810267,0x00,,
1.810361,0x00,,
1.810456,0x57,,
1.810551,0xFF,,
1.816768,0x04,,
1.816863,0xA1,,
1.816959,0x5A,,
1.817054,0xFF,,
1.817777,0x06,,
1.817873,0xA1,,
1.817968,0xFF,,
1.818064,0xFF,,
1.818159,0x5A,,
1.818255,0xFD,,
1.824469,0x04,,
1.824564,0xA2,,
1.82466,0x59,,
1.824755,0xFF,,
1.825473,0x06,,
1.825567,0xA2,,
1.825662,0x00,,
1.825757,0x00,,
1.825852,0x57,,
1.825947,0xFF,,
1.832169,0x04,,
1.832265,0xA1,,
1.832361,0x5A,,
1.832456,0xFF,,
1.833175,0x06,,
1.833271,0xA1,,
1.833366,0xFF,,
1.833462,0xFF,,
1.833557,0x5A,,
1.833653,0xFD,,
1.839871,0x04,,
1.839967,0xA2,,
1.840062,0x59,,
1.840158,0xFF,,
1.840874,0x06,,
1.840969,0xA2,,
1.841064,0x00,,
1.841159,0x00,,
1.841254,0x57,,
1.841348,0xFF,,
1.847571,0x04,,
1.847667,0xA1,,
1.847762,0x5A,,
1.847858,0xFF,,
1.84858,0x06,,
1.848676,0xA1,,
1.848771,0xFF,,
1.848867,0xFF,,
1.848962,0x5A,,
1.849058,0xFD,,
1.855272,0x04,,
1.855368,0xA2,,
1.855463,0x59,,
1.855559,0xFF,,
1.85627,0x06,,
1.856365,0xA2,,
1.85646,0x00,,
1.856555,0x00,,
1.856649,0x57,,
1.856744,0xFF,,
1.862973,0x04,,
1.863068,0xA1,,
1.863164,0x5A,,
1.86326,0xFF,,
1.86398,0x06,,
1.864076,0xA1,,
1.864171,0xFF,,
1.864267,0xFF,,
1.864362,0x5A,,
1.864458,0xFD,,
1.870674,0x04,,
1.870769,0xA2,,
1.870865,0x59,,
1.87096,0xFF,,
1.871683,0x06,,
1.871778,0xA2,,
1.871873,0x00,,
1.871968,0x00,,
1.872062,0x57,,
1.872157,0xFF,,
1.878375,0x04,,
1.87847,0xA1,,
1.878566,0x5A,,
1.878661,0xFF,,
1.879379,0x06,,
1.879475,0xA1,,
1.87957,0xFF,,
1.879666,0xFF,,
1.879761,0x5A,,
1.879857,0xFD,,
1.886075,0x04,,
1.886171,0xA2,,
1.886267,0x59,,
1.886362,0xFF,,
1.887079,0x06,,
1.887173,0xA2,,
1.887268,0x00,,
1.887363,0x00,,
1.887458,0x57,,
1.887553,0xFF,,
1.893776,0x04,,
1.893872,0xA1,,
1.893967,0x5A,,
1.894063,0xFF,,
1.894784,0x06,,
1.89488,0xA1,,
1.894975,0xFF,,
1.895071,0xFF,,
1.895166,0x5A,,
1.895262,0xFD,,
1.901477,0x04,,
1.901573,0xA2,,
1.901668,0x59,,
1.901764,0xFF,,
1.902483,0x06,,
1.902578,0xA2,,
1.902673,0x00,,
1.902768,0x00,,
1.902863,0x57,,
1.902958,0xFF,,
1.909178,0x04,,
1.909273,0xA1,,
1.909369,0x5A,,
1.909465,0xFF,,
1.910189,0x06,,
1.910285,0xA1,,
1.91038,0xFF,,
1.910476,0xFF,,
1.910571,0x5A,,
1.910667,0xFD,,
1.916879,0x04,,
1.916974,0xA2,,
1.91707,0x59,,
1.917165,0xFF,,
1.917879,0x06,,
1.917974,0xA2,,
1.918069,0x00,,
1.918164,0x00,,
1.918258,0x57,,
1.918353,0xFF,,
1.92458,0x04,,
1.924675,0xA1,,
1.924771,0x5A,,
1.924866,0xFF,,
1.925595,0x06,,
1.925691,0xA1,,
1.925786,0xFF,,
1.925882,0xFF,,
1.925977,0x5A,,
1.926073,0xFD,,
1.93228,0x04,,
1.932376,0xA2,,
1.932472,0x59,,
1.932567,0xFF,,
1.933282,0x06,,
1.933377,0xA2,,
1.933472,0x00,,
1.933567,0x00,,
1.933662,0x57,,
1.933756,0xFF,,
1.939981,0x04,,
1.940077,0xA1,,
1.940172,0x5A,,
1.940268,0xFF,,
1.940987,0x06,,
1.941082,0xA1,,
1.941178,0xFF,,
1.941273,0xFF,,
1.941369,0x5A,,
1.941464,0xFD,,
1.947682,0x04,,
1.947778,0xA2,,
1.947873,0x59,,
1.947969,0xFF,,
1.948685,0x06,,
1.94878,0xA2,,
1.948875,0x00,,
1.948969,0x00,,
1.949064,0x57,,
1.949159,0xFF,,
1.955383,0x04,,
1.955479,0xA1,,
1.955574,0x5A,,
1.95567,0xFF,,
1.956392,0x06,,
1.956487,0xA1,,
1.956583,0xFF,,
1.956679,0xFF,,
1.956774,0x5A,,
1.95687,0xFD,,
1.963083,0x04,,
1.963178,0xA2,,
1.963274,0x59,,
1.96337,0xFF,,
1.964089,0x06,,
1.964184,0xA2,,
1.964279,0x00,,
1.964374,0x00,,
1.964469,0x57,,
1.964564,0xFF,,
1.970785,0x04,,
1.97088,0xA1,,
1.970976,0x5A,,
1.971071,0xFF,,
1.971791,0x06,,
1.971887,0xA1,,
1.971982,0xFF,,
1.972078,0xFF,,
1.972173,0x5A,,
1.972269,0xFD,,
1.978485,0x04,,
1.97858,0xA2,,
1.978676,0x59,,
1.978771,0xFF,,
1.979485,0x06,,
1.97958,0xA2,,
1.979675,0x00,,
1.979769,0x00,,
1.979864,0x57,,
1.979959,0xFF,,
1.986185,0x04,,
1.986281,0xA1,,
1.986377,0x5A,,
1.986472,0xFF,,
1.987202,0x06,,
1.987297,0xA1,,
1.987393,0xFF,,
1.987488,0xFF,,
1.987584,0x5A,,
1.987679,0xFD,,
1.993886,0x04,,
1.993982,0xA2,,
1.994077,0x59,,
1.994173,0xFF,,
1.994888,0x06,,
1.994983,0xA2,,
1.995078,0x00,,
1.995173,0x00,,
1.995267,0x57,,
1.995362,0xFF,,
2.001587,0x04,,
2.001683,0xA1,,
2.001778,0x5A,,
2.001874,0xFF,,
2.002593,0x06,,
2.002689,0xA1,,
2.002784,0xFF,,
2.00288,0xFF,,
2.002975,0x5A,,
2.003071,0xFD,,
2.009288,0x04,,
2.009384,0xA2,,
2.009479,0x59,,
2.009575,0xFF,,
2.010288,0x06,,
2.010382,0xA2,,
2.010477,0x00,,
2.010572,0x00,,
2.010667,0x57,,
2.010762,0xFF,,
2.016989,0x04,,
2.017084,0xA1,,
2.01718,0x5A,,
2.017276,0xFF,,
2.017998,0x06,,
2.018094,0xA1,,
2.018189,0xFF,,
2.018285,0xFF,,
2.01838,0x5A,,
2.018476,0xFD,,
2.02469,0x04,,
2.024785,0xA2,,
2.024881,0x59,,
2.024976,0xFF,,
2.025691,0x06,,
2.025786,0xA2,,
2.02588,0x00,,
2.025975,0x00,,
2.02607,0x57,,
2.026165,0xFF,,
2.032391,0x04,,
2.032486,0xA1,,
2.032582,0x5A,,
2.032677,0xFF,,
2.033397,0x06,,
2.033493,0xA1,,
2.033588,0xFF,,
2.033684,0xFF,,
2.033779,0x5A,,
2.033875,0xFD,,
2.040091,0x04,,
2.040187,0xA2,,
2.040283,0x59,,
2.040378,0xFF,,
2.041095,0x06,,
2.04119,0xA2,,
2.041285,0x00,,
2.04138,0x00,,
2.041475,0x57,,
2.04157,0xFF,,
2.047791,0x04,,
2.047887,0xA1,,
2.047982,0x5A,,
2.048078,0xFF,,
2.048799,0x06,,
2.048894,0xA1,,
2.04899,0xFF,,
2.049085,0xFF,,
2.049181,0x5A,,
2.049276,0xFD,,
2.055492,0x04,,
2.055588,0xA2,,
2.055683,0x59,,
2.055779,0xFF,,
2.056491,0x06,,
2.056586,0xA2,,
2.056681,0x00,,
2.056776,0x00,,
2.056871,0x57,,
2.056966,0xFF,,
2.063193,0x04,,
2.063289,0xA1,,
2.063384,0x5A,,
2.06348,0xFF,,
2.064204,0x06,,
2.064299,0xA1,,
2.064395,0xFF,,
2.06449,0xFF,,
2.064586,0x5A,,
2.064681,0xFD,,
2.070894,0x04,,
2.070989,0xA2,,
2.071085,0x59,,
2.071181,0xFF,,
2.071894,0x06,,
2.071989,0xA2,,
2.072084,0x00,,
2.072179,0x00,,
2.072274,0x57,,
2.072368,0xFF,,
2.078595,0x04,,
2.07869,0xA1,,
2.078786,0x5A,,
2.078881,0xFF,,
2.079601,0x06,,
2.079697,0xA1,,
2.079792,0xFF,,
2.079888,0xFF,,
2.079983,0x5A,,
2.080079,0xFD,,
2.086296,0x04,,
2.086391,0xA2,,
2.086487,0x59,,
2.086582,0xFF,,
2.087296,0x06,,
2.087391,0xA2,,
2.087486,0x00,,
2.087581,0x00,,
2.087675,0x57,,
2.08777,0xFF,,
2.093996,0x04,,
2.094092,0xA1,,
2.094188,0x5A,,
2.094283,0xFF,,
2.095007,0x06,,
2.095102,0xA1,,
2.095198,0xFF,,
2.095293,0xFF,,
2.095389,0x5A,,
2.095484,0xFD,,
2.101697,0x04,,
2.101793,0xA2,,
2.101888,0x59,,
2.101984,0xFF,,
2.102698,0x06,,
2.102793,0xA2,,
2.102888,0x00,,
2.102983,0x00,,
2.103077,0x57,,
2.103172,0xFF,,
2.109398,0x04,,
2.109494,0xA1,,
2.109589,0x5A,,
2.109685,0xFF,,
2.110407,0x06,,
2.110502,0xA1,,
2.110598,0xFF,,
2.110693,0xFF,,
2.110789,0x5A,,
2.110884,0xFD,,
2.117099,0x04,,
2.117195,0xA2,,
2.11729,0x59,,
2.117386,0xFF,,
2.118101,0x06,,
2.118196,0xA2,,
2.118291,0x00,,
2.118386,0x00,,
2.118481,0x57,,
2.118576,0xFF,,
2.1248,0x04,,
2.124895,0xA1,,
2.124991,0x5A,,
2.125087,0xFF,,
2.125806,0x06,,
2.125901,0xA1,,
2.125997,0xFF,,
2.126092,0xFF,,
2.126188,0x5A,,
2.126283,0xFD,,
2.132501,0x04,,
2.132596,0xA2,,
2.132692,0x59,,
2.132787,0xFF,,
2.133507,0x06,,
2.133602,0xA2,,
2.133697,0x00,,
2.133792,0x00,,
2.133887,0x57,,
2.133982,0xFF,,
2.140202,0x04,,
2.140297,0xA1,,
2.140393,0x5A,,
2.140488,0xFF,,
2.141211,0x06,,
2.141306,0xA1,,
2.141402,0xFF,,
2.141497,0xFF,,
2.141593,0x5A,,
2.141688,0xFD,,
2.147902,0x04,,
2.147998,0x83,,
2.148094,0x78,,
2.148189,0xFF,,
2.155603,0x04,,
2.155699,0xA1,,
2.155794,0x5A,,
2.15589,0xFF,,
2.156614,0x06,,
2.15671,0xA1,,
2.156805,0xFF,,
2.156901,0xFF,,
2.156996,0x5A,,
2.157092,0xFD,,
2.163304,0x04,,
2.1634,0xA2,,
2.163495,0x59,,
2.163591,0xFF,,
2.164305,0x06,,
2.1644,0xA2,,
2.164495,0x00,,
2.16459,0x00,,
2.164684,0x57,,
2.164779,0xFF,,
2.171005,0x04,,
2.171101,0xA1,,
2.171196,0x5A,,
2.171292,0xFF,,
2.172012,0x06,,
2.172107,0xA1,,
2.172203,0xFF,,
2.172298,0xFF,,
2.172394,0x5A,,
2.172489,0xFD,,
2.178706,0x04,,
2.178801,0xA2,,
2.178897,0x59,,
2.178993,0xFF,,
2.179704,0x06,,
2.179799,0xA2,,
2.179894,0x00,,
2.179989,0x00,,
2.180083,0x57,,
2.180178,0xFF,,
2.186407,0x04,,
2.186502,0xA1,,
2.186598,0x5A,,
2.186693,0xFF,,
2.187412,0x06,,
2.187507,0xA1,,
2.187603,0xFF,,
2.187698,0xFF,,
2.187794,0x5A,,
2.187889,0xFD,,
2.194108,0x04,,
2.194203,0xA2,,
2.194299,0x59,,
2.194394,0xFF,,
2.195114,0x06,,
2.195209,0xA2,,
2.195304,0x00,,
2.195399,0x00,,
2.195494,0x57,,
2.195589,0xFF,,
2.201808,0x04,,
2.201904,0xA1,,
2.202,0x5A,,
2.202095,0xFF,,
2.202817,0x06,,
2.202912,0xA1,,
2.203008,0xFF,,
2.203103,0xFF,,
2.203199,0x5A,,
2.203294,0xFD,,
2.209509,0x04,,
2.209605,0xA2,,
2.2097,0x59,,
2.209796,0xFF,,
2.21051,0x06,,
2.210605,0xA2,,
2.2107,0x00,,
2.210795,0x00,,
2.21089,0x57,,
2.210984,0xFF,,
2.21721,0x04,,
2.217306,0xA1,,
2.217401,0x5A,,
2.217497,0xFF,,
2.218216,0x06,,
2.218311,0xA1,,
2.218407,0xFF,,
2.218502,0xFF,,
2.218598,0x5A,,
2.218694,0xFD,,
2.224911,0x04,,
2.225006,0xA2,,
2.225102,0x59,,
2.225198,0xFF,,
2.225915,0x06,,
2.22601,0xA2,,
2.226104,0x00,,
2.226199,0x00,,
2.226294,0x57,,
2.226389,0xFF,,
2.232612,0x04,,
2.232707,0xA1,,
2.232803,0x5A,,
2.232898,0xFF,,
2.233621,0x06,,
2.233717,0xA1,,
2.233812,0xFF,,
2.233908,0xFF,,
2.234003,0x5A,,
2.234099,0xFD,,
2.240313,0x04,,
2.240408,0xA2,,
2.240504,0x59,,
2.240599,0xFF,,
2.241319,0x06,,
2.241414,0xA2,,
2.241509,0x00,,
2.241604,0x00,,
2.241699,0x57,,
2.241794,0xFF,,
2.248013,0x04,,
2.248109,0xA1,,
2.248205,0x5A,,
2.2483,0xFF,,
2.249023,0x06,,
2.249118,0xA1,,
2.249214,0xFF,,
2.249309,0xFF,,
2.249405,0x5A,,
2.2495,0xFD,,
2.255714,0x04,,
2.25581,0xA2,,
2.255905,0x59,,
2.256001,0xFF,,
2.263415,0x04,,
2.263511,0xA2,,
2.263606,0x59,,
2.263702,0xFF,,
2.264413,0x06,,
2.264508,0xA2,,
2.264603,0x00,,
2.264698,0x00,,
2.264793,0x57,,
2.264888,0xFF,,
2.271114,0x04,,
2.27121,0xA1,,
2.271305,0x5A,,
2.271401,0xFF,,
2.272121,0x06,,
2.272216,0xA1,,
2.272312,0xFF,,
2.272407,0xFF,,
2.272503,0x5A,,
2.272598,0xFD,,
2.278816,0x04,,
2.278911,0xA2,,
2.279007,0x59,,
2.279103,0xFF,,
2.279817,0x06,,
2.279912,0xA2,,
2.280007,0x00,,
2.280101,0x00,,
2.280196,0x57,,
2.280291,0xFF,,
2.286517,0x04,,
2.286612,0xA1,,
2.286708,0x5A,,
2.286803,0xFF,,
2.287526,0x06,,
2.287621,0xA1,,
2.287717,0xFF,,
2.287813,0xFF,,
2.287908,0x5A,,
2.288004,0xFD,,
2.294218,0x04,,
2.294313,0xA2,,
2.294409,0x59,,
2.294504,0xFF,,
2.295222,0x06,,
2.295316,0xA2,,
2.295411,0x00,,
2.295506,0x00,,
2.295601,0x57,,
2.295696,0xFF,,
2.301917,0x04,,
2.302013,0xA1,,
2.302109,0x5A,,
2.302204,0xFF,,
2.302931,0x06,,
2.303026,0xA1,,
2.303122,0xFF,,
2.303217,0xFF,,
2.303313,0x5A,,
2.303408,0xFD,,
2.309619,0x04,,
2.309715,0xA2,,
2.30981,0x59,,
2.309906,0xFF,,
2.310617,0x06,,
2.310712,0xA2,,
2.310807,0x00,,
2.310902,0x00,,
2.310997,0x57,,
2.311092,0xFF,,
2.31732,0x04,,
2.317416,0xA1,,
2.317511,0x5A,,
2.317607,0xFF,,
2.31833,0x06,,
2.318425,0xA1,,
2.318521,0xFF,,
2.318616,0xFF,,
2.318712,0x5A,,
2.318807,0xFD,,
2.32502,0x04,,
2.325116,0xA2,,
2.325211,0x59,,
2.325307,0xFF,,
2.32602,0x06,,
2.326115,0xA2,,
2.32621,0x00,,
2.326305,0x00,,
2.326399,0x57,,
2.326494,0xFF,,
2.332722,0x04,,
2.332817,0xA1,,
2.332913,0x5A,,
2.333009,0xFF,,
2.333729,0x06,,
2.333824,0xA1,,
2.33392,0xFF,,
2.334015,0xFF,,
2.334111,0x5A,,
2.334206,0xFD,,
2.340422,0x04,,
2.340517,0xA2,,
2.340613,0x59,,
2.340708,0xFF,,
2.341422,0x06,,
2.341517,0xA2,,
2.341612,0x00,,
2.341707,0x00,,
2.341801,0x57,,
2.341896,0xFF,,
2.348123,0x04,,
2.348218,0xA1,,
2.348314,0x5A,,
2.348409,0xFF,,
2.349134,0x06,,
2.349229,0xA1,,
2.349325,0xFF,,
2.34942,0xFF,,
2.349516,0x5A,,
2.349611,0xFD,,
2.355823,0x04,,
2.355919,0xA2,,
2.356015,0x59,,
2.35611,0xFF,,
2.356824,0x06,,
2.356919,0xA2,,
2.357013,0x00,,
2.357108,0x00,,
2.357203,0x57,,
2.357298,0xFF,,
2.363524,0x04,,
2.36362,0xA1,,
2.363715,0x5A,,
2.363811,0xFF,,
2.364532,0x06,,
2.364628,0xA1,,
2.364723,0xFF,,
2.364819,0xFF,,
2.364914,0x5A,,
2.36501,0xFD,,
2.371225,0x04,,
2.371321,0xA2,,
2.371416,0x59,,
2.371512,0xFF,,
2.372227,0x06,,
2.372322,0xA2,,
2.372417,0x00,,
2.372512,0x00,,
2.372606,0x57,,
2.372701,0xFF,,
2.378926,0x04,,
2.379022,0xA1,,
2.379117,0x5A,,
2.379213,0xFF,,
2.379931,0x06,,
2.380027,0xA1,,
2.380122,0xFF,,
2.380218,0xFF,,
2.380313,0x5A,,
2.380409,0xFD,,
2.386627,0x04,,
2.386722,0xA2,,
2.386818,0x59,,
2.386914,0xFF,,
2.38763,0x06,,
2.387725,0xA2,,
2.387819,0x00,,
2.387914,0x00,,
2.388009,0x57,,
2.388104,0xFF,,
2.394328,0x04,,
2.394423,0xA1,,
2.394519,0x5A,,
2.394614,0xFF,,
2.395336,0x06,,
2.395432,0xA1,,
2.395527,0xFF,,
2.395623,0xFF,,
2.395718,0x5A,,
2.395814,0xFD,,
2.402029,0x04,,
2.402124,0xA2,,
2.40222,0x59,,
2.402315,0xFF,,
2.403032,0x06,,
2.403127,0xA2,,
2.403221,0x00,,
2.403316,0x00,,
2.403411,0x57,,
2.403506,0xFF,,
2.409729,0x04,,
2.409825,0xA1,,
2.409921,0x5A,,
2.410016,0xFF,,
2.410735,0x06,,
2.410831,0xA1,,
2.410926,0xFF,,
2.411022,0xFF,,
2.411117,0x5A,,
2.411213,0xFD,,
2.41743,0x04,,
2.417526,0xA2,,
2.417621,0x59,,
2.417717,0xFF,,
2.418437,0x06,,
2.418532,0xA2,,
2.418626,0x00,,
2.418721,0x00,,
2.418816,0x57,,
2.418911,0xFF,,
2.425131,0x04,,
2.425227,0xA1,,
2.425322,0x5A,,
2.425418,0xFF,,
2.426141,0x06,,
2.426236,0xA1,,
2.426332,0xFF,,
2.426427,0xFF,,
2.426523,0x5A,,
2.426618,0xFD,,
2.432832,0x04,,
2.432928,0xA2,,
2.433023,0x59,,
2.433119,0xFF,,
2.433832,0x06,,
2.433927,0xA2,,
2.434022,0x00,,
2.434117,0x00,,
2.434212,0x57,,
2.434307,0xFF,,
2.440532,0x04,,
2.440627,0xA1,,
2.440723,0x5A,,
2.440819,0xFF,,
2.441541,0x06,,
2.441636,0xA1,,
2.441732,0xFF,,
2.441827,0xFF,,
2.441923,0x5A,,
2.442018,0xFD,,
2.448234,0x04,,
2.448329,0xA2,,
2.448425,0x59,,
2.44852,0xFF,,
2.449235,0x06,,
2.44933,0xA2,,
2.449425,0x00,,
2.449519,0x00,,
2.449614,0x57,,
2.449709,0xFF,,
2.455935,0x04,,
2.45603,0xA1,,
2.456126,0x5A,,
2.456221,0xFF,,
2.456946,0x06,,
2.457041,0xA1,,
2.457137,0xFF,,
2.457232,0xFF,,
2.457328,0x5A,,
2.457423,0xFD,,
2.463634,0x04,,
2.46373,0xA2,,
2.463826,0x59,,
2.463921,0xFF,,
2.464634,0x06,,
2.464728,0xA2,,
2.464823,0x00,,
2.464918,0x00,,
2.465013,0x57,,
2.465108,0xFF,,
2.471335,0x04,,
2.471431,0xA1,,
2.471526,0x5A,,
2.471622,0xFF,,
2.472343,0x06,,
2.472439,0xA1,,
2.472534,0xFF,,
2.47263,0xFF,,
2.472725,0x5A,,
2.472821,0xFD,,
2.479036,0x04,,
2.479132,0xA2,,
2.479227,0x59,,
2.479323,0xFF,,
2.480035,0x06,,
2.48013,0xA2,,
2.480225,0x00,,
2.48032,0x00,,
2.480415,0x57,,
2.48051,0xFF,,
2.486737,0x04,,
2.486833,0xA1,,
2.486928,0x5A,,
2.487024,0xFF,,
2.487742,0x06,,
2.487838,0xA1,,
2.487933,0xFF,,
2.488029,0xFF,,
2.488124,0x5A,,
2.48822,0xFD,,
2.494438,0x04,,
2.494533,0xA2,,
2.494629,0x59,,
2.494725,0xFF,,
2.495437,0x06,,
2.495532,0xA2,,
2.495626,0x00,,
2.495721,0x00,,
2.495816,0x57,,
2.495911,0xFF,,
2.502139,0x04,,
2.502234,0xA1,,
2.50233,0x5A,,
2.502425,0xFF,,
2.503144,0x06,,
2.503239,0xA1,,
2.503335,0xFF,,
2.50343,0xFF,,
2.503526,0x5A,,
2.503621,0xFD,,
2.50984,0x04,,
2.509935,0xA2,,
2.510031,0x59,,
2.510126,0xFF,,
2.51754,0x04,,
2.517636,0xA2,,
2.517732,0x59,,
2.517827,0xFF,,
2.518547,0x06,,
2.518642,0xA2,,
2.518737,0x00,,
2.518831,0x00,,
2.518926,0x57,,
2.519021,0xFF,,
2.525241,0x04,,
2.525337,0xA1,,
2.525432,0x5A,,
2.525528,0xFF,,
2.526248,0x06,,
2.526344,0xA1,,
2.526439,0xFF,,
2.526535,0xFF,,
2.52663,0x5A,,
2.526726,0xFD,,
2.532942,0x04,,
2.533038,0xA2,,
2.533133,0x59,,
2.533229,0xFF,,
2.533943,0x06,,
2.534037,0xA2,,
2.534132,0x00,,
2.534227,0x00,,
2.534322,0x57,,
2.534417,0xFF,,
2.540643,0x04,,
2.540738,0xA1,,
2.540834,0x5A,,
2.54093,0xFF,,
2.541653,0x06,,
2.541749,0xA1,,
2.541844,0xFF,,
2.54194,0xFF,,
2.542035,0x5A,,
2.542131,0xFD,,
2.548344,0x04,,
2.548439,0xA2,,
2.548535,0x59,,
2.54863,0xFF,,
2.549346,0x06,,
2.549441,0xA2,,
2.549536,0x00,,
2.54963,0x00,,
2.549725,0x57,,
2.54982,0xFF,,
2.556045,0x04,,
2.55614,0xA1,,
2.556236,0x5A,,
2.556331,0xFF,,
2.557059,0x06,,
2.557155,0xA1,,
2.55725,0xFF,,
2.557346,0xFF,,
2.557441,0x5A,,
2.557537,0xFD,,
2.563745,0x04,,
2.563841,0xA2,,
2.563937,0x59,,
